/V0/PLUS (Vgs1=0.9) X,/V0/PLUS (Vgs1=0.9) Y,/V0/PLUS (Vgs1=1.8) X,/V0/PLUS (Vgs1=1.8) Y,/V0/PLUS (Vgs1=2.7) X,/V0/PLUS (Vgs1=2.7) Y
0,3.867195568014732e-05,0,3.889709660300897e-05,0,4.826631903038143e-05
0.001,-6.032047843750717e-05,0.001,-8.374359225524519e-05,0.001,-7.510344039017562e-05
0.002,-0.0001591602928995117,0.002,-0.000206113629307729,0.002,-0.0001984571621937213
0.003,-0.0002578700617649549,0.003,-0.0003284524213172861,0.003,-0.0003217115941068922
0.004,-0.0003565448598779052,0.004,-0.0004508526839718671,  ,  
0.005,-0.0004550929558453466,0.005,-0.0005730662333285067,  ,  
0.006,-0.0005534951999515028,0.006,-0.0006952452444944931,  ,  
0.007,-0.0006517779883111728,0.007,-0.0008175495562229714,  ,  
0.008,-0.0007500565713764096,0.008,-0.0009395317176890219,  ,  
0.009000000000000001,-0.0008478792166926715,0.009000000000000001,-0.001061343095210007,  ,  
0.01,-0.0009460109224203803,0.01,-0.001183219045571919,  ,  
0.011,-0.001044092413653618,0.011,-0.001305101403876992,  ,  
0.012,-0.001141770642754914,0.012,-0.001426694935701325,  ,  
0.013,-0.001239530075145534,0.013,-0.001548335564555962,  ,  
0.01400000000000001,-0.001337177874176897,0.01400000000000001,-0.001670276690784441,  ,  
0.01500000000000001,-0.001434716794449898,0.01500000000000001,-0.001791786016647763,  ,  
0.01600000000000001,-0.001532044918589533,0.01600000000000001,-0.001913246271488113,  ,  
0.01700000000000001,-0.001629230970551819,0.01700000000000001,-0.002034925553319798,  ,  
0.01800000000000001,-0.001726507604725547,0.01800000000000001,-0.002156137583725657,  ,  
0.01900000000000001,-0.001823586254029279,0.01900000000000001,-0.002277487493083223,  ,  
0.02000000000000001,-0.001920385160786801,0.02000000000000001,-0.002398577189665151,  ,  
0.02100000000000001,-0.002017396929865814,0.02100000000000001,-0.002519765963234869,  ,  
0.02200000000000001,-0.002114384345019153,0.02200000000000001,-0.00264102660863488,  ,  
0.02300000000000001,-0.002210611819382606,0.02300000000000001,-0.002761822879967527,  ,  
0.02400000000000001,-0.002307218446017366,0.02400000000000001,-0.002882998460555046,  ,  
0.02500000000000002,-0.002403653679195519,0.02500000000000002,-0.003003964239278113,  ,  
0.02600000000000002,-0.002499984088345996,0.02600000000000002,-0.003124678958473454,  ,  
0.02700000000000002,-0.002596077437353622,0.02700000000000002,-0.00324564206512198,  ,  
0.02800000000000002,-0.002692373461169819,0.02800000000000002,-0.003366023651988097,  ,  
0.02900000000000002,-0.002788446952101901,0.02900000000000002,-0.003486881522490114,  ,  
0.03000000000000002,-0.002884086500327093,0.03000000000000002,-0.003607413417777137,  ,  
0.03100000000000002,-0.002980150640196483,0.03100000000000002,-0.003727857279733048,  ,  
0.03200000000000002,-0.003075847398442113,0.03200000000000002,-0.003848329400884756,  ,  
0.03300000000000002,-0.0031715060491209,0.03300000000000002,-0.003968924927539051,  ,  
0.03400000000000002,-0.003266772422171711,0.03400000000000002,-0.004089121768863618,  ,  
0.03500000000000002,-0.003362464836755029,0.03500000000000002,-0.004209339259398553,  ,  
0.03600000000000003,-0.00345754195730423,0.03600000000000003,-0.004329604903182954,  ,  
0.03700000000000003,-0.003552969005957865,0.03700000000000003,-0.004449612798883772,  ,  
0.03800000000000003,-0.003648014985921813,0.03800000000000003,-0.004569730610843719,  ,  
0.03900000000000003,-0.003742999327008379,0.03900000000000003,-0.004689542848325846,  ,  
0.04000000000000003,-0.003837818813772912,0.04000000000000003,-0.004809474808534907,  ,  
0.04100000000000003,-0.003932344196105766,0.04100000000000003,-0.004929308126085091,  ,  
0.04200000000000003,-0.004027201039675,0.04200000000000003,-0.005049052294502418,  ,  
0.04300000000000003,-0.004121820884906514,0.04300000000000003,-0.005168737450032067,  ,  
0.04400000000000003,-0.004216303976124245,0.04400000000000003,-0.005288204280629406,  ,  
0.04500000000000003,-0.004310389019603724,0.04500000000000003,-0.005408022124529269,  ,  
0.04600000000000003,-0.004404866087321705,0.04600000000000003,-0.005527448616698846,  ,  
0.04700000000000003,-0.004498671843342742,0.04700000000000003,-0.005646993129503128,  ,  
0.04800000000000004,-0.004592892391867379,0.04800000000000004,-0.005766301658052178,  ,  
0.04900000000000004,-0.004686833672193905,0.04900000000000004,-0.00588574948094767,  ,  
0.05000000000000004,-0.004781022017455129,0.05000000000000004,-0.006005019328458027,  ,  
0.05100000000000004,-0.004874615587972569,0.05100000000000004,-0.006124208819355471,  ,  
0.05200000000000004,-0.004968119391016852,0.05200000000000004,-0.006243367417028497,  ,  
0.05300000000000004,-0.005061480235957834,0.05300000000000004,-0.006362262881459863,  ,  
0.05400000000000004,-0.005154885472912994,0.05400000000000004,-0.0064812556217677,  ,  
0.05500000000000004,-0.005248240634859586,0.05500000000000004,-0.006600017511127983,  ,  
0.05600000000000004,-0.005341460215991082,0.05600000000000004,-0.00671938806012028,  ,  
0.05700000000000004,-0.005434579749668937,0.05700000000000004,-0.00683782605287285,  ,  
0.05800000000000004,-0.005527417358921673,0.05800000000000004,-0.006956761546878755,  ,  
0.05900000000000005,-0.005620498180318131,0.05900000000000005,-0.007074980523330165,  ,  
0.06000000000000005,-0.00571309718376743,0.06000000000000005,-0.007194126819910556,  ,  
0.06100000000000005,-0.005805455509442351,0.06100000000000005,-0.007312435465164744,  ,  
0.06200000000000005,-0.0058982966531409,0.06200000000000005,-0.007430491970487139,  ,  
0.06300000000000004,-0.005990791420865295,0.06300000000000004,-0.007548868366913889,  ,  
0.06400000000000004,-0.006083203804398065,0.06400000000000004,-0.007667271871295559,  ,  
0.06500000000000004,-0.006175440432543401,0.06500000000000004,-0.007785411311726834,  ,  
0.06600000000000004,-0.006267483279169637,0.06600000000000004,-0.007903986036073998,  ,  
0.06700000000000005,-0.006359560902178774,0.06700000000000005,-0.008022227210471793,  ,  
0.06800000000000005,-0.00645152932279681,0.06800000000000005,-0.008140174927558738,  ,  
0.06900000000000005,-0.006543257862105752,0.06900000000000005,-0.008258346065478102,  ,  
0.07000000000000005,-0.006634961330036792,0.07000000000000005,-0.008375870983507826,  ,  
0.07100000000000005,-0.006726482871130095,0.07100000000000005,-0.008494041071458531,  ,  
0.07200000000000005,-0.006818064809123202,0.07200000000000005,-0.008611789056517138,  ,  
0.07300000000000005,-0.006909199674208136,0.07300000000000005,-0.008729324664180887,  ,  
0.07400000000000005,-0.007000816931880833,0.07400000000000005,-0.008847234985984191,  ,  
0.07500000000000005,-0.007091921009841159,0.07500000000000005,-0.008964557302903881,  ,  
0.07600000000000005,-0.007182881422355869,0.07600000000000005,-0.009082437934757425,  ,  
0.07700000000000005,-0.007273660780228094,0.07700000000000005,-0.009199433597345846,  ,  
0.07800000000000006,-0.007364962124451432,0.07800000000000006,-0.009316947148464387,  ,  
0.07900000000000006,-0.007455431782625387,0.07900000000000006,-0.009434636032102046,  ,  
0.08000000000000006,-0.007546218287246352,0.08000000000000006,-0.009551867135131131,  ,  
0.08100000000000006,-0.007636517408502744,0.08100000000000006,-0.009668714221504665,  ,  
0.08200000000000006,-0.007727307902635216,0.08200000000000006,-0.009785799118198407,  ,  
0.08300000000000006,-0.007817568679063431,0.08300000000000006,-0.00990336789508554,  ,  
0.08400000000000006,-0.007907790733197157,0.08400000000000006,-0.01002004865304929,  ,  
0.08500000000000006,-0.007997913873334338,0.08500000000000006,-0.01013708045060516,  ,  
0.08600000000000006,-0.00808794939127188,0.08600000000000006,-0.01025422631906171,  ,  
0.08700000000000006,-0.008177677768957789,0.08700000000000006,-0.01037106277310968,  ,  
0.08800000000000006,-0.008267818311715889,0.08800000000000006,-0.01048777977641364,  ,  
0.08900000000000007,-0.008357027102933571,0.08900000000000007,-0.01060439829654833,  ,  
0.09000000000000007,-0.008446955086150367,0.09000000000000007,-0.01072074299184219,  ,  
0.09100000000000007,-0.008536083627548523,0.09100000000000007,-0.0108375857971891,  ,  
0.09200000000000007,-0.008625571941530009,0.09200000000000007,-0.01095411407041437,  ,  
0.09300000000000007,-0.008715023003676473,0.09300000000000007,-0.01107061914416578,  ,  
0.09400000000000007,-0.008804208745974316,0.09400000000000007,-0.01118700088594872,  ,  
0.09500000000000007,-0.008893281333193986,0.09500000000000007,-0.01130282183154494,  ,  
0.09600000000000007,-0.008982253976711593,0.09600000000000007,-0.01141892471551575,  ,  
0.09700000000000007,-0.00907075115302149,0.09700000000000007,-0.01153520089838472,  ,  
0.09800000000000007,-0.009159879463177261,0.09800000000000007,-0.01165170994137436,  ,  
0.09900000000000007,-0.00924826113007093,0.09900000000000007,-0.01176777952425859,  ,  
0.1000000000000001,-0.009336929039800429,0.1000000000000001,-0.01188381863740174,  ,  
0.1010000000000001,-0.009425397358131755,0.1010000000000001,-0.01199971493337338,  ,  
0.1020000000000001,-0.009513732637250659,0.1020000000000001,-0.01211556580798335,  ,  
0.1030000000000001,-0.00960197433909394,0.1030000000000001,-0.01223143608048559,  ,  
0.1040000000000001,-0.00969000504174731,0.1040000000000001,-0.01234695636932763,  ,  
0.1050000000000001,-0.009778001968470741,0.1050000000000001,-0.01246273770595044,  ,  
0.1060000000000001,-0.009865950713931208,0.1060000000000001,-0.01257799415117127,  ,  
0.1070000000000001,-0.009953674602070408,0.1070000000000001,-0.01269362709908935,  ,  
0.1080000000000001,-0.01004160567297974,0.1080000000000001,-0.01280936529072554,  ,  
0.1090000000000001,-0.01012889474181546,0.1090000000000001,-0.01292464191141573,  ,  
0.1100000000000001,-0.0102163644775494,0.1100000000000001,-0.01303999823933669,  ,  
0.1110000000000001,-0.01030367597361376,0.1110000000000001,-0.01315520336317279,  ,  
0.1120000000000001,-0.01039075833838829,0.1120000000000001,-0.01327046254241429,  ,  
0.1130000000000001,-0.01047813542691084,0.1130000000000001,-0.01338554904644432,  ,  
0.1140000000000001,-0.01056522565833028,0.1140000000000001,-0.01350065933787119,  ,  
0.1150000000000001,-0.01065210269896607,0.1150000000000001,-0.0136152762528562,  ,  
0.1160000000000001,-0.01073891932834238,0.1160000000000001,-0.01373057360778118,  ,  
0.1170000000000001,-0.01082566357209034,0.1170000000000001,-0.013845226458437,  ,  
0.1180000000000001,-0.01091218582601951,0.1180000000000001,-0.01396032562750926,  ,  
0.1190000000000001,-0.01099865360129669,0.1190000000000001,-0.01407513749211499,  ,  
0.1200000000000001,-0.0110850769898665,0.1200000000000001,-0.01418933526219686,  ,  
0.1210000000000001,-0.01117153352158044,0.1210000000000001,-0.0143038965540536,  ,  
0.1220000000000001,-0.01125748197129121,0.1220000000000001,-0.01441853696645714,  ,  
0.1230000000000001,-0.01134356216953682,0.1230000000000001,-0.01453280016682916,  ,  
0.1240000000000001,-0.01142950031853365,0.1240000000000001,-0.01464780073253921,  ,  
0.1250000000000001,-0.01151537803786292,0.1250000000000001,-0.0147618242504525,  ,  
0.1260000000000001,-0.01160108655455524,0.1260000000000001,-0.01487649763319588,  ,  
0.1270000000000001,-0.011686597245528,0.1270000000000001,-0.01499031551969298,  ,  
0.1280000000000001,-0.01177225562825599,0.1280000000000001,-0.01510495386472436,  ,  
0.1290000000000001,-0.01185766951663914,0.1290000000000001,-0.01521885652845319,  ,  
0.1300000000000001,-0.01194301126628373,0.1300000000000001,-0.01533277144133273,  ,  
0.1310000000000001,-0.01202794523556339,0.1310000000000001,-0.01544708434445208,  ,  
0.1320000000000001,-0.01211349867782308,0.1320000000000001,-0.01556062038913223,  ,  
0.1330000000000001,-0.01219826400935162,0.1330000000000001,-0.01567484532694633,  ,  
0.1340000000000001,-0.01228306627711245,0.1340000000000001,-0.01578813642849642,  ,  
0.1350000000000001,-0.01236773254915423,0.1350000000000001,-0.0159023791740276,  ,  
0.1360000000000001,-0.01245252712845781,0.1360000000000001,-0.01601563327714671,  ,  
0.1370000000000001,-0.01253699654476107,0.1370000000000001,-0.01612938078971931,  ,  
0.1380000000000001,-0.01262158325382763,0.1380000000000001,-0.01624315184169773,  ,  
0.1390000000000001,-0.01270609558382918,0.1390000000000001,-0.01635657172578753,  ,  
0.1400000000000001,-0.01278993911638148,0.1400000000000001,-0.01646991913629145,  ,  
0.1410000000000001,-0.01287407543565406,0.1410000000000001,-0.01658307605763906,  ,  
0.1420000000000001,-0.01295815244250179,0.1420000000000001,-0.01669642381662599,  ,  
0.1430000000000001,-0.01304210900968944,0.1430000000000001,-0.01680917503425613,  ,  
0.1440000000000001,-0.01312594153387242,0.1440000000000001,-0.01692291171620881,  ,  
0.1450000000000001,-0.01320950538892677,0.1450000000000001,-0.01703593386224541,  ,  
0.1460000000000001,-0.01329327361270621,0.1460000000000001,-0.01714898299552318,  ,  
0.1470000000000001,-0.01337694277276263,0.1470000000000001,-0.01726141019625141,  ,  
0.1480000000000001,-0.01346011629686397,0.1480000000000001,-0.01737473987322184,  ,  
0.1490000000000001,-0.01354340107541007,0.1490000000000001,-0.01748764836434829,  ,  
0.1500000000000001,-0.01362642229406645,0.1500000000000001,-0.0176000101928743,  ,  
0.1510000000000001,-0.01370949326739173,0.1510000000000001,-0.01771281852323812,  ,  
0.1520000000000001,-0.01379252531095113,0.1520000000000001,-0.01782569725160693,  ,  
0.1530000000000001,-0.01387510513511585,0.1530000000000001,-0.01793827652332361,  ,  
0.1540000000000001,-0.01395806103301707,0.1540000000000001,-0.01805038330190721,  ,  
0.1550000000000001,-0.01404071870031762,0.1550000000000001,-0.01816310990329855,  ,  
0.1560000000000001,-0.01412299714214344,0.1560000000000001,-0.01827563292832986,  ,  
0.1570000000000001,-0.01420539484288487,0.1570000000000001,-0.01838777272850898,  ,  
0.1580000000000001,-0.01428763588495401,0.1580000000000001,-0.01849987657792128,  ,  
0.1590000000000001,-0.01436981961477786,0.1590000000000001,-0.01861236671499847,  ,  
0.1600000000000001,-0.01445204348208587,0.1600000000000001,-0.0187245467443298,  ,  
0.1610000000000001,-0.01453403880070693,0.1610000000000001,-0.01883645034978822,  ,  
0.1620000000000001,-0.01461587372540142,0.1620000000000001,-0.01894816896065637,  ,  
0.1630000000000001,-0.01469776100751935,0.1630000000000001,-0.01906054963135799,  ,  
0.1640000000000001,-0.01477917919417768,0.1640000000000001,-0.01917220015055703,  ,  
0.1650000000000001,-0.0148608403961841,0.1650000000000001,-0.01928424989743548,  ,  
0.1660000000000001,-0.01494224365254347,0.1660000000000001,-0.01939600839942066,  ,  
0.1670000000000001,-0.01502341314360114,0.1670000000000001,-0.0195078502757916,  ,  
0.1680000000000001,-0.01510460276126626,0.1680000000000001,-0.0196190100982614,  ,  
0.1690000000000001,-0.01518549459576577,0.1690000000000001,-0.0197307653704582,  ,  
0.1700000000000001,-0.01526633482454383,0.1700000000000001,-0.01984226124118591,  ,  
0.1710000000000001,-0.01534736395550119,0.1710000000000001,-0.01995384112487428,  ,  
0.1720000000000001,-0.01542818742815634,0.1720000000000001,-0.0200646465702854,  ,  
0.1730000000000001,-0.01550889513220024,0.1730000000000001,-0.02017634578243844,  ,  
0.1740000000000001,-0.01558940100182684,0.1740000000000001,-0.02028760275154184,  ,  
0.1750000000000001,-0.01567001174901592,0.1750000000000001,-0.02039854817294263,  ,  
0.1760000000000001,-0.01574992831973536,0.1760000000000001,-0.02050986412923693,  ,  
0.1770000000000001,-0.01583025191761224,0.1770000000000001,-0.02062068360570994,  ,  
0.1780000000000001,-0.01591025419374617,0.1780000000000001,-0.02073174475620471,  ,  
0.1790000000000001,-0.0159904795932904,0.1790000000000001,-0.02084281933080747,  ,  
0.1800000000000001,-0.01607029607050031,0.1800000000000001,-0.02095320640946126,  ,  
0.1810000000000001,-0.01614988768104445,0.1810000000000001,-0.02106413186318685,  ,  
0.1820000000000001,-0.01622939928631409,0.1820000000000001,-0.02117471554405595,  ,  
0.1830000000000001,-0.01630920586999893,0.1830000000000001,-0.02128562082520745,  ,  
0.1840000000000001,-0.01638845034887186,0.1840000000000001,-0.02139645545549888,  ,  
0.1850000000000001,-0.01646794706283279,0.1850000000000001,-0.02150682120613437,  ,  
0.1860000000000001,-0.01654716220357237,0.1860000000000001,-0.02161738156164824,  ,  
0.1870000000000001,-0.01662612744322223,0.1870000000000001,-0.02172796910477842,  ,  
0.1880000000000001,-0.0167051678084561,0.1880000000000001,-0.02183825940010587,  ,  
0.1890000000000001,-0.01678419492390519,0.1890000000000001,-0.0219483298217914,  ,  
0.1900000000000001,-0.01686293214979209,0.1900000000000001,-0.02205866570402563,  ,  
0.1910000000000001,-0.01694142757357734,0.1910000000000001,-0.02216881472513881,  ,  
0.1920000000000001,-0.01702020205711547,0.1920000000000001,-0.0222784811361336,  ,  
0.1930000000000001,-0.0170985735008905,0.1930000000000001,-0.02238910925061386,  ,  
0.1940000000000001,-0.01717661116363348,0.1940000000000001,-0.02249856196132905,  ,  
0.1950000000000001,-0.01725512100446296,0.1950000000000001,-0.02260844509853791,  ,  
0.1960000000000001,-0.01733320129230047,0.1960000000000001,-0.02271872409989602,  ,  
0.1970000000000001,-0.01741098085522422,0.1970000000000001,-0.02282797358918271,  ,  
0.1980000000000001,-0.01748889564430094,0.1980000000000001,-0.02293785149832806,  ,  
0.1990000000000001,-0.0175667802860549,0.1990000000000001,-0.02304755529123242,  ,  
0.2000000000000001,-0.01764430876524951,0.2000000000000001,-0.02315741417126919,  ,  
0.2010000000000002,-0.01772221561374614,0.2010000000000002,-0.02326703826572916,  ,  
0.2020000000000002,-0.01779953100480159,0.2020000000000002,-0.02337650742073917,  ,  
0.2030000000000002,-0.01787686509942853,0.2030000000000002,-0.02348571270162551,  ,  
0.2040000000000002,-0.01795392676133732,0.2040000000000002,-0.02359496066454653,  ,  
0.2050000000000002,-0.01803109772764817,0.2050000000000002,-0.02370416551096135,  ,  
0.2060000000000002,-0.01810823159915097,0.2060000000000002,-0.02381371781019001,  ,  
0.2070000000000002,-0.01818505515372689,0.2070000000000002,-0.02392265042825431,  ,  
0.2080000000000002,-0.01826180793261347,0.2080000000000002,-0.02403182222136473,  ,  
0.2090000000000002,-0.01833840892197423,0.2090000000000002,-0.02414070343073128,  ,  
0.2100000000000002,-0.01841485496650046,0.2100000000000002,-0.02424956149817949,  ,  
0.2110000000000002,-0.01849125393894754,0.2110000000000002,-0.02435836220388087,  ,  
0.2120000000000002,-0.01856765310377292,0.2120000000000002,-0.02446737445922971,  ,  
0.2130000000000002,-0.01864401782933701,0.2130000000000002,-0.02457631291859711,  ,  
0.2140000000000002,-0.01872008180594054,0.2140000000000002,-0.02468515824912186,  ,  
0.2150000000000002,-0.01879597005202399,0.2150000000000002,-0.02479387040812648,  ,  
0.2160000000000002,-0.01887201250991869,0.2160000000000002,-0.02490206467153158,  ,  
0.2170000000000002,-0.01894782164415682,0.2170000000000002,-0.02501085531994844,  ,  
0.2180000000000002,-0.01902322369944896,0.2180000000000002,-0.02511932627827767,  ,  
0.2190000000000002,-0.01909897861520574,0.2190000000000002,-0.02522746833571633,  ,  
0.2200000000000002,-0.01917419527807827,0.2200000000000002,-0.02533575628432285,  ,  
0.2210000000000002,-0.01924956015139023,0.2210000000000002,-0.02544427015695087,  ,  
0.2220000000000002,-0.01932467790611402,0.2220000000000002,-0.02555235147118287,  ,  
0.2230000000000002,-0.01940012783780548,0.2230000000000002,-0.02566087490526638,  ,  
0.2240000000000002,-0.01947505442431137,0.2240000000000002,-0.02576824239892125,  ,  
0.2250000000000002,-0.01954988094799705,0.2250000000000002,-0.0258764527862502,  ,  
0.2260000000000002,-0.01962441163205488,0.2260000000000002,-0.02598436681467883,  ,  
0.2270000000000002,-0.01969913053204626,0.2270000000000002,-0.02609254597268886,  ,  
0.2280000000000002,-0.01977361109214603,0.2280000000000002,-0.02620015161318076,  ,  
0.2290000000000002,-0.01984819599721268,0.2290000000000002,-0.02630792837637776,  ,  
