! Touchstone Ver. 1.0 
! Sun Apr  2 18:49:51 2023
! Number of ports is 2
# Hz	S	DB	R	50.000000
! SCATTERING PARAMETERS  :
1.00000000e+10    -0.094907  -142.151   -16.4334  95.1874   -16.6203  93.1858   -0.109917  148.619  
1.01000000e+10    -0.0975783  -142.552   -16.3092  94.7489   -16.496  92.7671   -0.113148  148.187  
1.02000000e+10    -0.10032  -142.946   -16.1858  94.3117   -16.3725  92.3493   -0.116451  147.751  
1.03000000e+10    -0.103133  -143.334   -16.0631  93.8758   -16.2498  91.9325   -0.119831  147.311  
1.04000000e+10    -0.106019  -143.717   -15.9413   93.441   -16.1278  91.5163   -0.123287  146.866  
1.05000000e+10    -0.108979  -144.093   -15.8202  93.0072   -16.0067  91.1008   -0.126821  146.416  
1.06000000e+10    -0.112015  -144.464   -15.6999  92.5742   -15.8862  90.6858   -0.130437  145.962  
1.07000000e+10    -0.115129  -144.829   -15.5803  92.1419   -15.7665  90.2712   -0.134135  145.503  
1.08000000e+10    -0.118321  -145.189   -15.4614  91.7102   -15.6475  89.8568   -0.137917   145.04  
1.09000000e+10    -0.121594  -145.544   -15.3431  91.2791   -15.5292  89.4426   -0.141785  144.571  
1.10000000e+10    -0.124949  -145.894   -15.2255  90.8482   -15.4115  89.0285   -0.145741  144.098  
1.11000000e+10    -0.128388  -146.239   -15.1085  90.4177   -15.2944  88.6143   -0.149788  143.619  
1.12000000e+10    -0.131912  -146.579   -14.9922  89.9872   -15.178  88.1999   -0.153927  143.136  
1.13000000e+10    -0.135524  -146.914   -14.8764  89.5568   -15.0622  87.7853   -0.15816  142.647  
1.14000000e+10    -0.139225  -147.245   -14.7612  89.1262   -14.9469  87.3703   -0.16249  142.152  
1.15000000e+10    -0.143018  -147.571   -14.6466  88.6954   -14.8322  86.9547   -0.16692  141.653  
1.16000000e+10    -0.146903  -147.892   -14.5325  88.2643   -14.718  86.5386   -0.17145  141.147  
1.17000000e+10    -0.150884  -148.21   -14.4189  87.8328   -14.6044  86.1218   -0.176084  140.636  
1.18000000e+10    -0.154962  -148.523   -14.3059  87.4007   -14.4913  85.7042   -0.180824  140.119  
1.19000000e+10    -0.159139  -148.832   -14.1934  86.9679   -14.3787  85.2857   -0.185672  139.596  
1.20000000e+10    -0.163418  -149.137   -14.0813  86.5344   -14.2666  84.8662   -0.190632  139.067  
1.21000000e+10    -0.1678  -149.438   -13.9698  86.0999   -14.155  84.4455   -0.195705  138.532  
1.22000000e+10    -0.172289  -149.735   -13.8587  85.6645   -14.0438  84.0237   -0.200894  137.991  
1.23000000e+10    -0.176886  -150.029   -13.748   85.228   -13.9331  83.6005   -0.206203  137.443  
1.24000000e+10    -0.181594  -150.318   -13.6378  84.7902   -13.8228  83.1758   -0.211633  136.888  
1.25000000e+10    -0.186415  -150.604   -13.528  84.3512   -13.713  82.7497   -0.217188  136.327  
1.26000000e+10    -0.191352  -150.887   -13.4186  83.9107   -13.6036  82.3219   -0.22287  135.759  
1.27000000e+10    -0.196407  -151.166   -13.3097  83.4687   -13.4946  81.8924   -0.228683  135.184  
1.28000000e+10    -0.201583  -151.441   -13.2011  83.0251   -13.386  81.4611   -0.23463  134.602  
1.29000000e+10    -0.206883  -151.714   -13.093  82.5797   -13.2778  81.0278   -0.240713  134.013  
1.30000000e+10    -0.212309  -151.983   -12.9852  82.1324   -13.1699  80.5925   -0.246936  133.417  
1.31000000e+10    -0.217864  -152.248   -12.8778  81.6832   -13.0625  80.1551   -0.253302  132.813  
1.32000000e+10    -0.223552  -152.511   -12.7708   81.232   -12.9554  79.7154   -0.259815  132.201  
1.33000000e+10    -0.229374  -152.771   -12.6641  80.7785   -12.8487  79.2733   -0.266477  131.581  
1.34000000e+10    -0.235334  -153.027   -12.5578  80.3228   -12.7424  78.8289   -0.273292  130.954  
1.35000000e+10    -0.241436  -153.28   -12.4519  79.8647   -12.6364  78.3818   -0.280264  130.318  
1.36000000e+10    -0.247681  -153.531   -12.3462  79.4042   -12.5307  77.9322   -0.287396  129.674  
1.37000000e+10    -0.254073  -153.778   -12.241   78.941   -12.4254  77.4797   -0.294692  129.022  
1.38000000e+10    -0.260616  -154.023   -12.1361  78.4751   -12.3205  77.0244   -0.302155  128.361  
1.39000000e+10    -0.267313  -154.265   -12.0315  78.0064   -12.2158  76.5662   -0.309789  127.691  
1.40000000e+10    -0.274166  -154.504   -11.9272  77.5348   -12.1115  76.1049   -0.317598  127.013  
1.41000000e+10    -0.281179  -154.74   -11.8233  77.0602   -12.0076  75.6404   -0.325585  126.325  
1.42000000e+10    -0.288356  -154.973   -11.7197  76.5825   -11.9039  75.1726   -0.333755  125.628  
1.43000000e+10    -0.2957  -155.204   -11.6164  76.1015   -11.8006  74.7015   -0.342111  124.921  
1.44000000e+10    -0.303214  -155.432   -11.5135  75.6172   -11.6977  74.2269   -0.350658  124.205  
1.45000000e+10    -0.310902  -155.658   -11.4109  75.1294   -11.595  73.7487   -0.359399  123.479  
1.46000000e+10    -0.318767  -155.881   -11.3086  74.6381   -11.4927  73.2669   -0.368338  122.743  
1.47000000e+10    -0.326813  -156.101   -11.2067  74.1431   -11.3907  72.7812   -0.377479  121.997  
1.48000000e+10    -0.335043  -156.319   -11.1051  73.6443   -11.2891  72.2916   -0.386827   121.24  
1.49000000e+10    -0.343462  -156.534   -11.0038  73.1417   -11.1878  71.7981   -0.396385  120.473  
1.50000000e+10    -0.352071  -156.746   -10.9028  72.6351   -11.0868  71.3004   -0.406158  119.695  
1.51000000e+10    -0.360876  -156.956   -10.8022  72.1243   -10.9862  70.7985   -0.416149  118.906  
1.52000000e+10    -0.369879  -157.164   -10.702  71.6094   -10.8859  70.2923   -0.426363  118.106  
1.53000000e+10    -0.379084  -157.369   -10.602  71.0902   -10.7859  69.7817   -0.436803  117.294  
1.54000000e+10    -0.388494  -157.571   -10.5025  70.5666   -10.6863  69.2666   -0.447475  116.471  
1.55000000e+10    -0.398113  -157.771   -10.4033  70.0384   -10.5871  68.7468   -0.458381  115.635  
1.56000000e+10    -0.407945  -157.969   -10.3045  69.5057   -10.4882  68.2223   -0.469525  114.788  
1.57000000e+10    -0.417992  -158.164   -10.206  68.9682   -10.3898   67.693   -0.480912  113.929  
1.58000000e+10    -0.428258  -158.356   -10.1079  68.4258   -10.2917  67.1588   -0.492546  113.057  
1.59000000e+10    -0.438747  -158.546   -10.0102  67.8786   -10.1939  66.6195   -0.504429  112.172  
1.60000000e+10    -0.44946  -158.733   -9.91296  67.3263   -10.0966   66.075   -0.516566  111.275  
1.61000000e+10    -0.460401  -158.918   -9.81609  66.7688   -9.99975  65.5254   -0.528959  110.364  
1.62000000e+10    -0.471574   -159.1   -9.71965  66.2062   -9.90327  64.9704   -0.541613   109.44  
1.63000000e+10    -0.48298  -159.28   -9.62363  65.6381   -9.80724  64.4099   -0.554531  108.502  
1.64000000e+10    -0.494622  -159.457   -9.52807  65.0647   -9.71165  63.8439   -0.567715  107.551  
1.65000000e+10    -0.506502  -159.631   -9.43296  64.4857   -9.61652  63.2723   -0.581168  106.585  
1.66000000e+10    -0.518623  -159.802   -9.33833   63.901   -9.52186   62.695   -0.594892  105.605  
1.67000000e+10    -0.530986  -159.971   -9.24419  63.3107   -9.4277  62.1119   -0.608891  104.611  
1.68000000e+10    -0.543594  -160.137   -9.15055  62.7145   -9.33404  61.5229   -0.623165  103.602  
1.69000000e+10    -0.556446  -160.301   -9.05744  62.1125   -9.2409  60.9279   -0.637717  102.578  
1.70000000e+10    -0.569545  -160.461   -8.96486  61.5044   -9.1483  60.3268   -0.652547  101.539  
1.71000000e+10    -0.582891  -160.619   -8.87284  60.8903   -9.05626  59.7195   -0.667657  100.485  
1.72000000e+10    -0.596485  -160.773   -8.7814    60.27   -8.9648  59.1061   -0.683048   99.415  
1.73000000e+10    -0.610325  -160.925   -8.69055  59.6435   -8.87393  58.4863   -0.698718  98.3293  
1.74000000e+10    -0.624413  -161.073   -8.60032  59.0107   -8.78367  57.8601   -0.714669  97.2275  
1.75000000e+10    -0.638746  -161.219   -8.51072  58.3715   -8.69406  57.2275   -0.730898  96.1095  
1.76000000e+10    -0.653324  -161.361   -8.42179  57.7259   -8.60511  56.5884   -0.747405  94.9752  
1.77000000e+10    -0.668144  -161.501   -8.33354  57.0738   -8.51684  55.9427   -0.764187  93.8242  
1.78000000e+10    -0.683203  -161.636   -8.24599  56.4151   -8.42927  55.2904   -0.781242  92.6564  
1.79000000e+10    -0.6985  -161.769   -8.15918  55.7498   -8.34244  54.6314   -0.798565  91.4716  
1.80000000e+10    -0.714029  -161.898   -8.07312  55.0779   -8.25637  53.9657   -0.816154  90.2697  
1.81000000e+10    -0.729787  -162.024   -7.98785  54.3992   -8.17108  53.2932   -0.834003  89.0505  
1.82000000e+10    -0.745768  -162.146   -7.90339  53.7138   -8.0866  52.6138   -0.852106  87.8138  
1.83000000e+10    -0.761966  -162.264   -7.81977  53.0217   -8.00296  51.9277   -0.870456  86.5595  
1.84000000e+10    -0.778374  -162.379   -7.73702  52.3228   -7.92019  51.2347   -0.889047  85.2874  
1.85000000e+10    -0.794986  -162.49   -7.65516   51.617   -7.83832  50.5348   -0.90787  83.9975  
1.86000000e+10    -0.811792  -162.597   -7.57423  50.9044   -7.75737  49.8281   -0.926914  82.6896  
1.87000000e+10    -0.828784   -162.7   -7.49426  50.1851   -7.67738  49.1145   -0.946171  81.3636  
1.88000000e+10    -0.84595   -162.8   -7.41527  49.4589   -7.59838   48.394   -0.965627  80.0194  
1.89000000e+10    -0.86328  -162.895   -7.33731  48.7259   -7.5204  47.6666   -0.985271   78.657  
1.90000000e+10    -0.880762  -162.986   -7.2604  47.9861   -7.44348  46.9324   -1.00509  77.2763  
1.91000000e+10    -0.898383  -163.072   -7.18457  47.2396   -7.36764  46.1914   -1.02507  75.8774  
1.92000000e+10    -0.916127  -163.155   -7.10987  46.4864   -7.29292  45.4437   -1.04518  74.4601  
1.93000000e+10    -0.933981  -163.232   -7.03632  45.7265   -7.21935  44.6892   -1.06543  73.0246  
1.94000000e+10    -0.951927  -163.306   -6.96395  44.9601   -7.14697  43.9281   -1.08578  71.5707  
1.95000000e+10    -0.969948  -163.375   -6.8928  44.1871   -7.07581  43.1604   -1.10621  70.0987  
1.96000000e+10    -0.988025  -163.439   -6.82291  43.4077   -7.0059  42.3862   -1.12672  68.6086  
1.97000000e+10    -1.00614  -163.499   -6.75431  42.6219   -6.93729  41.6056   -1.14726  67.1004  
1.98000000e+10    -1.02427  -163.554   -6.68704  41.8298     -6.87  40.8187   -1.16782  65.5744  
1.99000000e+10    -1.0424  -163.604   -6.62112  41.0317   -6.80406  40.0256   -1.18838  64.0306  
2.00000000e+10    -1.06049  -163.649   -6.55659  40.2275   -6.73953  39.2265   -1.20891  62.4694  
2.01000000e+10    -1.07854  -163.689   -6.49349  39.4174   -6.67641  38.4214   -1.22937  60.8908  
2.02000000e+10    -1.09651  -163.725   -6.43185  38.6016   -6.61476  37.6105   -1.24975  59.2952  
2.03000000e+10    -1.11438  -163.755   -6.37171  37.7802   -6.5546   36.794   -1.27001  57.6828  
2.04000000e+10    -1.13211  -163.781   -6.31309  36.9534   -6.49597  35.9721   -1.29012   56.054  
2.05000000e+10    -1.1497  -163.802   -6.25603  36.1214   -6.4389  35.1448   -1.31005   54.409  
2.06000000e+10    -1.1671  -163.818   -6.20056  35.2844   -6.38341  34.3125   -1.32977  52.7484  
2.07000000e+10    -1.18428  -163.828   -6.14671  34.4425   -6.32955  33.4753   -1.34925  51.0724  
2.08000000e+10    -1.20123  -163.834   -6.0945  33.5959   -6.27734  32.6334   -1.36844  49.3816  
2.09000000e+10    -1.21791  -163.835   -6.04398   32.745   -6.2268  31.7871   -1.38733  47.6764  
2.10000000e+10    -1.23429  -163.832   -5.99516  31.8899   -6.17797  30.9366   -1.40587  45.9573  
2.11000000e+10    -1.25033  -163.823   -5.94808  31.0309   -6.13088  30.0821   -1.42402   44.225  
2.12000000e+10    -1.26602  -163.81   -5.90275  30.1682   -6.08554  29.2238   -1.44176  42.4799  
2.13000000e+10    -1.28132  -163.792   -5.8592  29.3021   -6.04198  28.3622   -1.45905  40.7228  
2.14000000e+10    -1.29621  -163.769   -5.81745  28.4329   -6.00022  27.4974   -1.47586  38.9542  
2.15000000e+10    -1.31064  -163.743   -5.77753  27.5608   -5.96028  26.6296   -1.49215  37.1748  
2.16000000e+10    -1.3246  -163.711   -5.73945  26.6861   -5.92219  25.7593   -1.50788  35.3854  
2.17000000e+10    -1.33806  -163.676   -5.70322  25.8092   -5.88596  24.8866   -1.52303  33.5867  
2.18000000e+10    -1.35099  -163.637   -5.66887  24.9303   -5.85159   24.012   -1.53757  31.7795  
2.19000000e+10    -1.36337  -163.593   -5.63641  24.0498   -5.81912  23.1357   -1.55146  29.9646  
2.20000000e+10    -1.37516  -163.546   -5.60584  23.1679   -5.78854  22.2579   -1.56468  28.1427  
2.21000000e+10    -1.38635  -163.496   -5.57718   22.285   -5.75987  21.3792   -1.57719  26.3147  
2.22000000e+10    -1.39692  -163.442   -5.55043  21.4014   -5.73311  20.4996   -1.58899  24.4816  
2.23000000e+10    -1.40684  -163.385   -5.5256  20.5175   -5.70828  19.6197   -1.60003  22.6441  
2.24000000e+10    -1.4161  -163.325   -5.50269  19.6334   -5.68536  18.7397   -1.6103  20.8032  
2.25000000e+10    -1.42468  -163.262   -5.48171  18.7497   -5.66437  17.8599   -1.61978  18.9598  
2.26000000e+10    -1.43256  -163.197   -5.46265  17.8666   -5.64529  16.9807   -1.62845  17.1147  
2.27000000e+10    -1.43974  -163.129   -5.4455  16.9844   -5.62814  16.1024   -1.63631   15.269  
2.28000000e+10    -1.4462  -163.059   -5.43027  16.1034   -5.61289  15.2254   -1.64332  13.4235  
2.29000000e+10    -1.45193  -162.988   -5.41694  15.2241   -5.59956  14.3499   -1.6495  11.5791  
2.30000000e+10    -1.45693  -162.915   -5.4055  14.3467   -5.58811  13.4763   -1.65482  9.73688  
2.31000000e+10    -1.46119  -162.84   -5.39595  13.4715   -5.57855  12.6048   -1.65929  7.89762  
2.32000000e+10    -1.46471  -162.765   -5.38826  12.5989   -5.57085  11.7359   -1.66291  6.06228  
2.33000000e+10    -1.46749  -162.688   -5.38242  11.7291   -5.56501  10.8699   -1.66566  4.23175  
2.34000000e+10    -1.46954  -162.611   -5.37842  10.8625    -5.561   10.007   -1.66756  2.40692  
2.35000000e+10    -1.47085  -162.533   -5.37624  9.99937   -5.55881  9.14747   -1.66862  0.588654  
2.36000000e+10    -1.47144  -162.456   -5.37584     9.14   -5.5584  8.29171   -1.66884  -1.22219  
2.37000000e+10    -1.47131  -162.378   -5.37722  8.28467   -5.55977  7.43997   -1.66822  -3.02479  
2.38000000e+10    -1.47047   -162.3   -5.38034  7.43367   -5.56288  6.59251   -1.6668  -4.81833  
2.39000000e+10    -1.46894  -162.223   -5.38518  6.58725   -5.56771  5.74962   -1.66457  -6.60204  
2.40000000e+10    -1.46673  -162.147   -5.3917  5.74568   -5.57423  4.91154   -1.66155  -8.37516  
2.41000000e+10    -1.46385  -162.071   -5.39989  4.90921   -5.58241  4.07853   -1.65778  -10.137  
2.42000000e+10    -1.46032  -161.997   -5.40971  4.07807   -5.59222  3.25082   -1.65325  -11.8868  
2.43000000e+10    -1.45616  -161.923   -5.42113  3.25249   -5.60363  2.42865   -1.64801  -13.6239  
2.44000000e+10    -1.45139  -161.851   -5.43411  2.43269   -5.61661  1.61223   -1.64206  -15.3478  
2.45000000e+10    -1.44602  -161.781   -5.44863  1.61889   -5.63112  0.801769   -1.63544  -17.0577  
2.46000000e+10    -1.44009  -161.712   -5.46464  0.811263   -5.64712  -0.00253104   -1.62817  -18.7532  
2.47000000e+10    -1.43361  -161.646   -5.48211  0.0100114   -5.66459  -0.800487   -1.62028  -20.4338  
2.48000000e+10    -1.42661  -161.581   -5.50101  -0.784694   -5.68348  -1.59192   -1.61179  -22.0988  
2.49000000e+10    -1.41911  -161.518   -5.5213  -1.57269   -5.70376  -2.37668   -1.60274  -23.748  
2.50000000e+10    -1.41113  -161.457   -5.54294  -2.35383   -5.7254  -3.1546   -1.59315  -25.3808  
2.51000000e+10    -1.4027  -161.399   -5.5659  -3.12796   -5.74834  -3.92554   -1.58305  -26.9969  
2.52000000e+10    -1.39384  -161.343   -5.59013  -3.89496   -5.77257  -4.68937   -1.57246  -28.5959  
2.53000000e+10    -1.38458  -161.289   -5.6156  -4.65471   -5.79804  -5.44598   -1.56143  -30.1775  
2.54000000e+10    -1.37493  -161.238   -5.64227  -5.4071   -5.8247  -6.19525   -1.54997  -31.7414  
2.55000000e+10    -1.36494  -161.189   -5.67011  -6.15202   -5.85253  -6.93709   -1.53812  -33.2874  
2.56000000e+10    -1.35461  -161.143   -5.69907  -6.8894   -5.88149  -7.6714   -1.5259  -34.8153  
2.57000000e+10    -1.34398   -161.1   -5.72912  -7.61916   -5.91153  -8.39811   -1.51335  -36.3248  
2.58000000e+10    -1.33306  -161.059   -5.76021  -8.34123   -5.94262  -9.11716   -1.50048  -37.8159  
2.59000000e+10    -1.32188  -161.02   -5.79232  -9.05554   -5.97472  -9.82847   -1.48733  -39.2883  
2.60000000e+10    -1.31047  -160.985   -5.82541  -9.76205   -6.0078  -10.532   -1.47392  -40.742  
2.61000000e+10    -1.29884  -160.952   -5.85943  -10.4607   -6.04182  -11.2277   -1.46028  -42.1769  
2.62000000e+10    -1.28702  -160.922   -5.89435  -11.1515   -6.07673  -11.9156   -1.44643  -43.593  
2.63000000e+10    -1.27502  -160.894   -5.93014  -11.8344   -6.11252  -12.5956   -1.4324  -44.9902  
2.64000000e+10    -1.26287  -160.869   -5.96676  -12.5094   -6.14913  -13.2677   -1.41821  -46.3685  
2.65000000e+10    -1.25058  -160.847   -6.00418  -13.1765   -6.18654  -13.9319   -1.40387  -47.728  
2.66000000e+10    -1.23818  -160.827   -6.04236  -13.8357   -6.22471  -14.5883   -1.38942  -49.0686  
2.67000000e+10    -1.22567  -160.809   -6.08126  -14.4869   -6.26361  -15.2367   -1.37487  -50.3905  
2.68000000e+10    -1.21309  -160.795   -6.12086  -15.1303   -6.30321  -15.8772   -1.36025  -51.6937  
2.69000000e+10    -1.20044  -160.782   -6.16113  -15.7658   -6.34347  -16.5099   -1.34556  -52.9783  
2.70000000e+10    -1.18774  -160.772   -6.20202  -16.3934   -6.38436  -17.1348   -1.33083  -54.2444  
2.71000000e+10    -1.17501  -160.764   -6.24351  -17.0132   -6.42584  -17.7519   -1.31608  -55.4922  
2.72000000e+10    -1.16225  -160.759   -6.28558  -17.6252   -6.4679  -18.3612   -1.30132  -56.7217  
2.73000000e+10    -1.14949  -160.756   -6.32819  -18.2295   -6.51051  -18.9628   -1.28656  -57.9331  
2.74000000e+10    -1.13672  -160.755   -6.37131  -18.826   -6.55362  -19.5567   -1.27182  -59.1266  
2.75000000e+10    -1.12398  -160.756   -6.41491  -19.415   -6.59722  -20.1429   -1.25711  -60.3023  
2.76000000e+10    -1.11126  -160.76   -6.45897  -19.9963   -6.64127  -20.7216   -1.24245  -61.4605  
2.77000000e+10    -1.09858  -160.765   -6.50346  -20.5701   -6.68576  -21.2928   -1.22784  -62.6012  
2.78000000e+10    -1.08594  -160.772   -6.54836  -21.1364   -6.73065  -21.8565   -1.2133  -63.7248  
2.79000000e+10    -1.07336  -160.782   -6.59364  -21.6953   -6.77593  -22.4129   -1.19883  -64.8313  
2.80000000e+10    -1.06085  -160.793   -6.63927  -22.2469   -6.82156  -22.9619   -1.18445  -65.9211  
2.81000000e+10    -1.0484  -160.806   -6.68524  -22.7912   -6.86752  -23.5036   -1.17016  -66.9942  
2.82000000e+10    -1.03604  -160.82   -6.73152  -23.3283   -6.9138  -24.0382   -1.15598  -68.051  
2.83000000e+10    -1.02376  -160.837   -6.77809  -23.8583   -6.96036  -24.5656   -1.1419  -69.0916  
2.84000000e+10    -1.01157  -160.855   -6.82493  -24.3812   -7.00719  -25.0861   -1.12794  -70.1163  
2.85000000e+10    -0.999475  -160.874   -6.87202  -24.8972   -7.05428  -25.5995   -1.1141  -71.1252  
2.86000000e+10    -0.987484  -160.895   -6.91933  -25.4062   -7.10159  -26.1062   -1.10038  -72.1187  
2.87000000e+10    -0.975599  -160.918   -6.96685  -25.9085   -7.14911  -26.606   -1.0868  -73.0969  
2.88000000e+10    -0.963825  -160.941   -7.01457  -26.404   -7.19682  -27.0991   -1.07335  -74.0601  
2.89000000e+10    -0.952165  -160.967   -7.06246  -26.8929   -7.2447  -27.5855   -1.06004  -75.0085  
2.90000000e+10    -0.940623  -160.993   -7.1105  -27.3752   -7.29274  -28.0654   -1.04688  -75.9424  
2.91000000e+10    -0.929202  -161.021   -7.15869  -27.851   -7.34092  -28.5389   -1.03386  -76.8619  
2.92000000e+10    -0.917903  -161.05    -7.207  -28.3204   -7.38923  -29.006   -1.02099  -77.7672  
2.93000000e+10    -0.906731  -161.08   -7.25542  -28.7836   -7.43764  -29.4668   -1.00827  -78.6588  
2.94000000e+10    -0.895685  -161.111   -7.30393  -29.2405   -7.48615  -29.9214   -0.995708  -79.5366  
2.95000000e+10    -0.884769  -161.143   -7.35253  -29.6913   -7.53474  -30.3698   -0.983297  -80.4011  
2.96000000e+10    -0.873984  -161.176   -7.40119  -30.136   -7.5834  -30.8123   -0.971041  -81.2523  
2.97000000e+10    -0.86333  -161.21   -7.44991  -30.5747   -7.63212  -31.2487   -0.958942  -82.0906  
