! Created Fri May  5 21:36:33 2023
# hz S ma R 50
! 2 Port Network Data from SP1.SP block
! freq  magS11  angS11  magS21  angS21  magS12  angS12  magS22  angS22  
!     
             1e+10        0.94069126        -93.6282065        0.819297488         177.700451       0.0155273374         108.492373        0.973612148          141.81766
          1.01e+10       0.940123008        -94.1959067        0.823472815         176.950546       0.0157618164         107.945341        0.972916644         141.372094
          1.02e+10        0.93955894        -94.7575726        0.827595763         176.203026       0.0159968376         107.400597         0.97220984         140.924655
          1.03e+10       0.938999016        -95.3132712        0.831667171         175.457844       0.0162323871         106.858096         0.97149167         140.475321
          1.04e+10       0.938443194        -95.8630692        0.835687857         174.714955       0.0164684516         106.317789        0.970762068         140.024074
          1.05e+10       0.937891429        -96.4070327         0.83965862         173.974314       0.0167050177          105.77963        0.970020971         139.570893
          1.06e+10       0.937343677        -96.9452275        0.843580245         173.235875       0.0169420724         105.243573        0.969268314         139.115757
          1.07e+10       0.936799891        -97.4777191        0.847453494         172.499594        0.017179603         104.709572        0.968504034         138.658645
          1.08e+10        0.93626002        -98.0045723        0.851279115         171.765426        0.017417597         104.177582        0.967728066         138.199538
          1.09e+10       0.935724017        -98.5258515        0.855057833         171.033328       0.0176560418         103.647557        0.966940349         137.738415
           1.1e+10        0.93519183        -99.0416208         0.85879036         170.303256       0.0178949254         103.119452        0.966140821         137.275254
          1.11e+10       0.934663407        -99.5519436        0.862477385         169.575168       0.0181342356         102.593224        0.965329419         136.810035
          1.12e+10       0.934138695        -100.056883        0.866119583         168.849019       0.0183739606         102.068828        0.964506083         136.342737
          1.13e+10       0.933617641        -100.556501        0.869717606         168.124769       0.0186140886         101.546221        0.963670753          135.87334
          1.14e+10       0.933100191         -101.05086        0.873272092         167.402375       0.0188546079         101.025361         0.96282337         135.401821
          1.15e+10        0.93258629         -101.54002         0.87678366         166.681796        0.019095507         100.506203        0.961963874          134.92816
          1.16e+10       0.932075883        -102.024043        0.880252909         165.962991       0.0193367742         99.9887076        0.961092209         134.452336
          1.17e+10       0.931568914        -102.502989        0.883680422          165.24592       0.0195783982         99.4728316        0.960208318         133.974327
          1.18e+10       0.931065327        -102.976917        0.887066764         164.530542       0.0198203676         98.9585343        0.959312143         133.494112
          1.19e+10       0.930565067        -103.445885        0.890412482         163.816817        0.020062671         98.4457751        0.958403632          133.01167
           1.2e+10       0.930068078        -103.909953        0.893718106         163.104708        0.020305297         97.9345136        0.957482729         132.526979
          1.21e+10       0.929574303        -104.369178        0.896984147         162.394175       0.0205482343         97.4247102        0.956549382         132.040019
          1.22e+10       0.929083687        -104.823617          0.9002111         161.685179       0.0207914716         96.9163256        0.955603539         131.550766
          1.23e+10       0.928596174        -105.273325        0.903399443         160.977684       0.0210349974         96.4093211        0.954645151         131.059201
          1.24e+10       0.928111708         -105.71836        0.906549636         160.271652       0.0212788004         95.9036584        0.953674168         130.565301
          1.25e+10       0.927630234        -106.158776        0.909662124         159.567046       0.0215228691         95.3992998        0.952690542         130.069045
          1.26e+10       0.927151698        -106.594627        0.912737332          158.86383       0.0217671919         94.8962079        0.951694228         129.570411
          1.27e+10       0.926676043        -107.025967        0.915775671         158.161968       0.0220117573         94.3943461        0.950685181         129.069378
          1.28e+10       0.926203218        -107.452849        0.918777536         157.461426       0.0222565536         93.8936781        0.949663357         128.565924
          1.29e+10       0.925733167        -107.875327        0.921743303         156.762168       0.0225015691         93.3941681        0.948628716         128.060027
           1.3e+10       0.925265839         -108.29345        0.924673336          156.06416       0.0227467918         92.8957809        0.947581218         127.551665
          1.31e+10        0.92480118        -108.707272        0.927567978         155.367368       0.0229922098         92.3984817        0.946520826         127.040818
          1.32e+10        0.92433914        -109.116842        0.930427561         154.671759        0.023237811         91.9022363        0.945447503         126.527463
          1.33e+10       0.923879668        -109.522209        0.933252399         153.977301       0.0234835831          91.407011        0.944361217         126.011579
          1.34e+10       0.923422714        -109.923425         0.93604279          153.28396       0.0237295136         90.9127726        0.943261935         125.493144
          1.35e+10       0.922968228        -110.320536         0.93879902         152.591706       0.0239755901         90.4194885        0.942149628         124.972137
          1.36e+10       0.922516162         -110.71359        0.941521357         151.900507       0.0242217998         89.9271264         0.94102427         124.448536
          1.37e+10        0.92206647        -111.102636        0.944210055         151.210333       0.0244681299         89.4356547        0.939885836          123.92232
          1.38e+10       0.921619104         -111.48772        0.946865355         150.521153       0.0247145671         88.9450422        0.938734304         123.393467
          1.39e+10       0.921174019        -111.868888         0.94948748         149.832937       0.0249610983         88.4552585        0.937569654         122.861955
           1.4e+10       0.920731172        -112.246184        0.952076643         149.145657         0.02520771         87.9662734         0.93639187         122.327764
          1.41e+10       0.920290518        -112.619655        0.954633039         148.459283       0.0254543885         87.4780573        0.935200939         121.790873
          1.42e+10       0.919852016        -112.989343        0.957156853         147.773788       0.0257011198         86.9905812        0.933996849         121.251259
          1.43e+10       0.919415625        -113.355293        0.959648254         147.089144       0.0259478899         86.5038167        0.932779592         120.708902
          1.44e+10       0.918981305        -113.717547        0.962107399         146.405324       0.0261946844         86.0177357        0.931549164         120.163781
          1.45e+10       0.918549017        -114.076149        0.964534429         145.722301       0.0264414886         85.5323108        0.930305564         119.615875
          1.46e+10       0.918118724        -114.431138        0.966929476         145.040049       0.0266882878         85.0475151        0.929048793         119.065164
          1.47e+10        0.91769039        -114.782557        0.969292655         144.358543       0.0269350668         84.5633221        0.927778858         118.511625
          1.48e+10        0.91726398        -115.130446        0.971624073         143.677758       0.0271818103         84.0797061        0.926495768          117.95524
          1.49e+10       0.916839461        -115.474845        0.973923821         142.997669       0.0274285027         83.5966416        0.925199535         117.395987
           1.5e+10       0.916416801        -115.815794        0.976191979         142.318252       0.0276751281          83.114104        0.923890177         116.833846
          1.51e+10       0.915995968         -116.15333        0.978428615         141.639485       0.0279216702         82.6320689        0.922567714         116.268797
          1.52e+10       0.915576935        -116.487493        0.980633787         140.961343       0.0281681128         82.1505126        0.921232172          115.70082
          1.53e+10       0.915159671        -116.818319        0.982807538         140.283805       0.0284144389         81.6694119        0.919883581         115.129895
          1.54e+10       0.914744152        -117.145846        0.984949902         139.606848       0.0286606317         81.1887442        0.918521973         114.556002
          1.55e+10       0.914330352        -117.470111        0.987060903         138.930452       0.0289066739         80.7084874        0.917147387         113.979123
          1.56e+10       0.913918247         -117.79115        0.989140552         138.254596       0.0291525477         80.2286199        0.915759867         113.399237
          1.57e+10       0.913507815        -118.108997        0.991188849          137.57926       0.0293982354         79.7491206        0.914359459         112.816326
          1.58e+10       0.913099036        -118.423689        0.993205787         136.904423       0.0296437187          79.269969        0.912946217         112.230371
          1.59e+10       0.912691891        -118.735259        0.995191345         136.230066       0.0298889791         78.7911453        0.911520198         111.641353
           1.6e+10       0.912286361        -119.043741        0.997145494         135.556172       0.0301339978         78.3126299        0.910081465         111.049254
          1.61e+10       0.911882432        -119.349169        0.999068196         134.882722       0.0303787557         77.8344041        0.908630086         110.454057
          1.62e+10       0.911480088        -119.651576          1.0009594         134.209698       0.0306232334         77.3564495        0.907166136         109.855742
          1.63e+10       0.911079317        -119.950994         1.00281906         133.537083        0.030867411         76.8787483        0.905689693         109.254293
          1.64e+10       0.910680107        -120.247454         1.00464709         132.864861       0.0311112686         76.4012833        0.904200842         108.649692
          1.65e+10        0.91028245         -120.54099         1.00644343         132.193016       0.0313547858         75.9240378        0.902699674         108.041923
          1.66e+10       0.909886335        -120.831631         1.00820799         131.521533       0.0315979419         75.4469957        0.901186287         107.430969
          1.67e+10       0.909491758        -121.119408         1.00994068         130.850396       0.0318407158         74.9701415        0.899660782         106.816813
          1.68e+10       0.909098714        -121.404352          1.0116414         130.179592       0.0320830864           74.49346        0.898123269          106.19944
          1.69e+10       0.908707198        -121.686491         1.01331004         129.509106        0.032325032         74.0169368        0.896573864         105.578834
           1.7e+10       0.908317211        -121.965856          1.0149465         128.838926       0.0325665306          73.540558        0.895012688          104.95498
          1.71e+10        0.90792875        -122.242475         1.01655064         128.169039         0.03280756         73.0643101         0.89343987         104.327864
          1.72e+10        0.90754182        -122.516377         1.01812234         127.499432       0.0330480977         72.5881805        0.891855546          103.69747
          1.73e+10       0.907156422        -122.787588         1.01966146         126.830095       0.0332881208         72.1121568        0.890259857         103.063785
          1.74e+10       0.906772561        -123.056138         1.02116786         126.161015       0.0335276063         71.6362273        0.888652954         102.426796
          1.75e+10       0.906390245        -123.322054          1.0226414         125.492184       0.0337665305         71.1603809        0.887034992          101.78649
          1.76e+10       0.906009482        -123.585361         1.02408191          124.82359       0.0340048699         70.6846069        0.885406134         101.142853
          1.77e+10        0.90563028        -123.846087         1.02548926         124.155224       0.0342426004         70.2088953        0.883766552         100.495874
          1.78e+10       0.905252653        -124.104258         1.02686325         123.487078       0.0344796976         69.7332368        0.882116424         99.8455417
          1.79e+10       0.904876614        -124.359899         1.02820374         122.819144       0.0347161371         69.2576222        0.880455935         99.1918445
           1.8e+10       0.904502176        -124.613035         1.02951055         122.151413       0.0349518939         68.7820434         0.87878528         98.5347721
          1.81e+10       0.904129357        -124.863693         1.03078349         121.483879       0.0351869429         68.3064924        0.877104659         97.8743146
          1.82e+10       0.903758174        -125.111896         1.03202239         120.816535       0.0354212588          67.830962         0.87541428         97.2104626
          1.83e+10       0.903388647        -125.357668         1.03322706         120.149374       0.0356548159         67.3554456        0.873714362         96.5432075
          1.84e+10       0.903020797        -125.601035         1.03439731         119.482392       0.0358875883          66.879937        0.872005128         95.8725411
          1.85e+10       0.902654648        -125.842019         1.03553296         118.815584       0.0361195499         66.4044307        0.870286811         95.1984559
          1.86e+10       0.902290223        -126.080644          1.0366338         118.148945       0.0363506743         65.9289216        0.868559653         94.5209451
          1.87e+10       0.901927548        -126.316932         1.03769965         117.482471        0.036580935         65.4534053        0.866823902         93.8400024
          1.88e+10       0.901566651        -126.550908         1.03873029         116.816159       0.0368103052          64.977878        0.865079816         93.1556226
          1.89e+10        0.90120756        -126.782594         1.03972553         116.150007        0.037038758         64.5023362        0.863327661         92.4678007
           1.9e+10       0.900850307         -127.01201         1.04068518         115.484011        0.037266266         64.0267772         0.86156771         91.7765329
          1.91e+10       0.900494922        -127.239181         1.04160902         114.818172        0.037492802         63.5511987        0.859800246         91.0818158
          1.92e+10        0.90014144        -127.464127         1.04249685         114.152487       0.0377183385         63.0755991        0.858025559          90.383647
          1.93e+10       0.899789894         -127.68687         1.04334846         113.486955       0.0379428476         62.5999773        0.856243948         89.6820248
          1.94e+10       0.899440322        -127.907431         1.04416366         112.821578       0.0381663017         62.1243327        0.854455721         88.9769483
          1.95e+10        0.89909276        -128.125831         1.04494223         112.156355       0.0383886727         61.6486653        0.852661194         88.2684176
          1.96e+10       0.898747247        -128.342092         1.04568398         111.491288       0.0386099325         61.1729755        0.850860691         87.5564334
          1.97e+10       0.898403823        -128.556232         1.04638869         110.826379       0.0388300529         60.6972645        0.849054545         86.8409976
          1.98e+10       0.898062531        -128.768274         1.04705618         110.161629       0.0390490057         60.2215338        0.847243096         86.1221127
          1.99e+10       0.897723411        -128.978236         1.04768623         109.497041       0.0392667623         59.7457856        0.845426694         85.3997824
             2e+10       0.897386509         -129.18614         1.04827865         108.832618       0.0394832944         59.2700226        0.843605697         84.6740111
          2.01e+10       0.897051869        -129.392004         1.04883324         108.168365       0.0396985734          58.794248        0.841780471         83.9448044
          2.02e+10       0.896719537        -129.595848          1.0493498         107.504285       0.0399125707         58.3184655        0.839951389         83.2121687
          2.03e+10        0.89638956        -129.797692         1.04982816         106.840383       0.0401252579         57.8426794        0.838118834         82.4761115
          2.04e+10       0.896061987        -129.997554         1.05026811         106.176665       0.0403366063         57.3668944        0.836283195         81.7366415
          2.05e+10       0.895736866        -130.195455         1.05066948         105.513137       0.0405465872         56.8911159        0.834444871         80.9937681
          2.06e+10       0.895414249        -130.391411         1.05103208         104.849804       0.0407551722         56.4153497        0.832604267         80.2475022
          2.07e+10       0.895094185        -130.585444         1.05135573         104.186674       0.0409623328         55.9396021        0.830761796         79.4978555
          2.08e+10       0.894776727         -130.77757         1.05164027         103.523754       0.0411680404           55.46388         0.82891788         78.7448409
          2.09e+10       0.894461928        -130.967808         1.05188553         102.861052       0.0413722666         54.9881906        0.827072947         77.9884726
           2.1e+10        0.89414984        -131.156177         1.05209135         102.198576       0.0415749832         54.5125419        0.825227431         77.2287657
          2.11e+10       0.893840519        -131.342694         1.05225756         101.536336        0.041776162          54.036942        0.823381776         76.4657368
          2.12e+10       0.893534019        -131.527379         1.05238402         100.874339       0.0419757748         53.5613998        0.821536431         75.6994035
          2.13e+10       0.893230395        -131.710247         1.05247058         100.212597       0.0421737937         53.0859245        0.819691851         74.9297847
          2.14e+10       0.892929703        -131.891319          1.0525171         99.5511189        0.042370191          52.610526        0.817848499         74.1569005
          2.15e+10          0.892632         -132.07061         1.05252346         98.8899158        0.042564939         52.1352143        0.816006844         73.3807724
