! Created Fri May  5 22:11:50 2023
# hz S ma R 50
! 2 Port Network Data from SP1.SP block
! freq  magS11  angS11  magS21  angS21  magS12  angS12  magS22  angS22  
!     
             1e+10       0.999555202         162.272174     5.44143866e-05         4.24733097     1.95444958e-08        -134.168825        0.984696184         141.838059
          1.01e+10       0.999532686         162.041314     5.81886435e-05         3.30792246     2.13182833e-08        -134.702488        0.984328299         141.385066
          1.02e+10        0.99950915         161.808495     6.22078016e-05         2.36572501     2.32421665e-08        -135.239133         0.98395425         140.929771
          1.03e+10       0.999484549         161.573674     6.64872679e-05          1.4206838     2.53281898e-08        -135.778812        0.983573958         140.472142
          1.04e+10       0.999458837         161.336811     7.10434277e-05        0.472744411     2.75893367e-08        -136.321588        0.983187342          140.01215
          1.05e+10       0.999431967          161.09786     7.58937104e-05       -0.478148196     3.00396013e-08        -136.867516        0.982794324         139.549761
          1.06e+10       0.999403887         160.856779     8.10566602e-05        -1.43205261     3.26940687e-08        -137.416657        0.982394819         139.084943
          1.07e+10       0.999374546         160.613523      8.6552009e-05        -2.38902532     3.55689996e-08        -137.969069        0.981988748         138.617662
          1.08e+10       0.999343889         160.368044      9.2400757e-05        -3.34912826     3.86819222e-08        -138.524816        0.981576024         138.147888
          1.09e+10       0.999311857         160.120295     9.86252569e-05        -4.31241985     4.20517297e-08        -139.083962        0.981156566         137.675586
           1.1e+10       0.999278391         159.870227     0.000105249309        -5.27896228     4.56987916e-08         -139.64657        0.980730287         137.200723
          1.11e+10       0.999243428         159.617792     0.000112298255          -6.248817      4.9645065e-08        -140.212705          0.9802971         136.723264
          1.12e+10       0.999206902         159.362936     0.000119799087        -7.22205294     5.39142234e-08        -140.782435        0.979856919         136.243177
          1.13e+10       0.999168744         159.105608     0.000127780555        -8.19873223     5.85317894e-08        -141.355828        0.979409656         135.760427
          1.14e+10       0.999128881         158.845754     0.000136273299        -9.17892305     6.35252844e-08        -141.932951        0.978955223         135.274979
          1.15e+10       0.999087239         158.583319     0.000145309961        -10.1626951     6.89243819e-08        -142.513881        0.978493529         134.786797
          1.16e+10       0.999043737         158.318245     0.000154925349        -11.1501177     7.47610852e-08        -143.098684        0.978024484         134.295847
          1.17e+10       0.998998292         158.050475     0.000165156566        -12.1412615     8.10699105e-08        -143.687438        0.977547998         133.802093
          1.18e+10       0.998950818         157.779949     0.000176043181        -13.1362027     8.78880851e-08        -144.280218        0.977063976         133.305498
          1.19e+10       0.998901224         157.506605     0.000187627394         -14.135018     9.52557652e-08        -144.877102        0.976572328         132.806028
           1.2e+10       0.998849413         157.230379     0.000199954245        -15.1377786     1.03216281e-07        -145.478167        0.976072957         132.303644
          1.21e+10       0.998795284         156.951208     0.000213071786        -16.1445672     1.11816381e-07        -146.083497         0.97556577         131.798311
          1.22e+10       0.998738734         156.669025     0.000227031316        -17.1554651     1.21106513e-07        -146.693172        0.975050672         131.289989
          1.23e+10        0.99867965          156.38376     0.000241887591        -18.1705538     1.31141117e-07         -147.30728        0.974527565         130.778643
          1.24e+10       0.998617917         156.095344     0.000257699122        -19.1899171     1.41978978e-07        -147.925904        0.973996353         130.264234
          1.25e+10       0.998553413         155.803703     0.000274528387        -20.2136435     1.53683542e-07        -148.549136        0.973456937         129.746724
          1.26e+10        0.99848601         155.508764      0.00029244215        -21.2418215     1.66323323e-07        -149.177066         0.97290922         129.226073
          1.27e+10       0.998415573         155.210449     0.000311511781        -22.2745433     1.79972315e-07        -149.809787          0.9723531         128.702244
          1.28e+10       0.998341961          154.90868     0.000331813577        -23.3118995     1.94710444e-07        -150.447395        0.971788477         128.175196
          1.29e+10       0.998265025         154.603374      0.00035342916        -24.3539876     2.10624072e-07        -151.089987        0.971215252         127.644888
           1.3e+10       0.998184608         154.294448     0.000376445793        -25.4009074     2.27806485e-07        -151.737666        0.970633321         127.111281
          1.31e+10       0.998100547         153.981816      0.00040095692        -26.4527592     2.46358554e-07        -152.390532        0.970042582         126.574335
          1.32e+10       0.998012667         153.665389      0.00042706252        -27.5096469     2.66389287e-07        -153.048692        0.969442931         126.034009
          1.33e+10       0.997920787         153.345074     0.000454869644        -28.5716765     2.88016553e-07        -153.712257        0.968834265          125.49026
          1.34e+10       0.997824715         153.020778      0.00048449302        -29.6389589     3.11367868e-07        -154.381334        0.968216478         124.943047
          1.35e+10       0.997724248         152.692402     0.000516055483        -30.7116057     3.36581121e-07        -155.056041        0.967589463         124.392328
          1.36e+10       0.997619174         152.359846     0.000549688731        -31.7897338     3.63805535e-07        -155.736495        0.966953115         123.838059
          1.37e+10       0.997509268         152.023006     0.000585534001        -32.8734598     3.93202646e-07        -156.422816        0.966307328         123.280199
          1.38e+10       0.997394294         151.681774     0.000623742736        -33.9629083      4.2494729e-07         -157.11513        0.965651992         122.718703
          1.39e+10       0.997274001          151.33604     0.000664477432        -35.0582058     4.59228816e-07        -157.813563        0.964986998         122.153527
           1.4e+10       0.997148127          150.98569     0.000707912456        -36.1594812     4.96252286e-07        -158.518248        0.964312237         121.584626
          1.41e+10       0.997016393         150.630605     0.000754235129        -37.2668698     5.36239957e-07        -159.229321          0.9636276         121.011957
          1.42e+10       0.996878507         150.270662     0.000803646542        -38.3805077     5.79432627e-07        -159.946921        0.962932974         120.435473
          1.43e+10       0.996734156         149.905736     0.000856362865        -39.5005371     6.26091437e-07        -160.671192        0.962228247         119.855128
          1.44e+10       0.996583015         149.535696     0.000912616398        -40.6271049     6.76499531e-07        -161.402281        0.961513306         119.270876
          1.45e+10       0.996424737         149.160406     0.000972657047        -41.7603618      7.3096414e-07        -162.140342         0.96078804          118.68267
          1.46e+10       0.996258954         148.779727      0.00103675348        -42.9004658      7.8981855e-07        -162.885534         0.96005233         118.090463
          1.47e+10       0.996085281         148.393513      0.00110519507        -44.0475742     8.53424705e-07        -163.638016        0.959306065         117.494206
          1.48e+10       0.995903306         148.001615      0.00117829325        -45.2018548     9.22175568e-07        -164.397959        0.958549126         116.893852
          1.49e+10       0.995712596         147.603877      0.00125638353        -46.3634792     9.96498066e-07        -165.165534        0.957781395          116.28935
           1.5e+10        0.99551269         147.200137      0.00133982752        -47.5326246     1.07685617e-06        -165.940921        0.957002757         115.680652
          1.51e+10       0.995303101         146.790229       0.0014290149        -48.7094729     1.16375418e-06        -166.724305        0.956213088         115.067706
          1.52e+10       0.995083312          146.37398      0.00152436625        -49.8942163     1.25774073e-06        -167.515877        0.955412271         114.450464
          1.53e+10       0.994852775         145.951209      0.00162633519        -51.0870496     1.35941253e-06        -168.315836        0.954600182         113.828871
          1.54e+10       0.994610908          145.52173      0.00173541162        -52.2881771     1.46941928e-06        -169.124385        0.953776697         113.202877
          1.55e+10       0.994357093         145.085349       0.0018521247        -53.4978071     1.58846837e-06        -169.941736        0.952941693          112.57243
          1.56e+10       0.994090676         144.641865      0.00197704629        -54.7161571     1.71733038e-06        -170.768109        0.952095045         111.937474
          1.57e+10       0.993810958         144.191068      0.00211079452        -55.9434538     1.85684507e-06        -171.603733        0.951236622         111.297957
          1.58e+10       0.993517199         143.732742      0.00225403845        -57.1799326     2.00792832e-06        -172.448841        0.950366296         110.653823
          1.59e+10        0.99320861         143.266659      0.00240750189        -58.4258368     2.17157893e-06        -173.303678        0.949483935         110.005017
           1.6e+10       0.992884353         142.792584      0.00257196884        -59.6814156     2.34888711e-06          -174.1685        0.948589406         109.351482
          1.61e+10       0.992543535         142.310272      0.00274828883        -60.9469327     2.54104331e-06        -175.043568        0.947682572         108.693162
          1.62e+10       0.992185204         141.819469      0.00293738289        -62.2226602     2.74934806e-06        -175.929157        0.946763297         108.029996
          1.63e+10       0.991808345         141.319907      0.00314025001        -63.5088818     2.97522267e-06        -176.825551        0.945831439         107.361928
          1.64e+10       0.991411879         140.811311      0.00335797423         -64.805891     3.22022145e-06        -177.733046        0.944886851         106.688896
          1.65e+10       0.990994649         140.293391      0.00359173367         -66.113993      3.4860456e-06        -178.651949         0.94392939         106.010841
          1.66e+10       0.990555424         139.765845      0.00384280759         -67.433507     3.77455678e-06        -179.582582        0.942958905           105.3277
          1.67e+10       0.990092888         139.228359      0.00411258755        -68.7647664     4.08779463e-06         179.474725        0.941975239         104.639409
          1.68e+10       0.989605634         138.680603      0.00440258762        -70.1081147      4.4279948e-06         178.519621        0.940978237         103.945906
          1.69e+10       0.989092157         138.122236      0.00471445564         -71.463916     4.79760833e-06         177.551746        0.939967732         103.247125
           1.7e+10       0.988550846         137.552897      0.00504998782        -72.8325433     5.19932564e-06         176.570721        0.938943558         102.542999
          1.71e+10       0.987979976          136.97221      0.00541114125        -74.2143917     5.63610011e-06         175.576151         0.93790554         101.833462
          1.72e+10       0.987377701         136.379784      0.00580005174        -75.6098718     6.11117704e-06         174.567625          0.9368535         101.118442
          1.73e+10        0.98674204         135.775207      0.00621904962        -77.0194113     6.62812317e-06         173.544712        0.935787248         100.397871
          1.74e+10       0.986070866         135.158047       0.0066706823        -78.4434624     7.19086406e-06         172.506962        0.934706592         99.6716761
          1.75e+10       0.985361898         134.527852      0.00715773375        -79.8824894     7.80371998e-06         171.453904        0.933611332         98.9397848
          1.76e+10       0.984612685          133.88415      0.00768324865        -81.3369885     8.47144965e-06         170.385045        0.932501252         98.2021202
          1.77e+10       0.983820592         133.226442      0.00825056238        -82.8074742     9.19930028e-06         169.299868        0.931376135          97.458606
          1.78e+10       0.982982783         132.554207      0.00886332766        -84.2944848     9.99305962e-06         168.197833        0.930235748         96.7091639
          1.79e+10       0.982096209         131.866896      0.00952555044        -85.7985862      1.0859117e-05          167.07837        0.929079848         95.9537123
           1.8e+10       0.981157582         131.163932       0.0102416262        -87.3203762     1.18045312e-05         165.940885        0.927908178         95.1921684
          1.81e+10       0.980163356          130.44471       0.0110163837        -88.8604765     1.28371087e-05          164.78475        0.926720469         94.4244467
          1.82e+10       0.979109711         129.708591       0.0118551285        -90.4195449     1.39654845e-05         163.609309        0.925516431         93.6504596
          1.83e+10       0.977992521         128.954902       0.0127636975        -91.9982738     1.51992219e-05         162.413869         0.92429576          92.870117
          1.84e+10       0.976807323         128.182936       0.0137485195        -93.5973868     1.65489223e-05         161.197703        0.923058137         92.0833254
          1.85e+10         0.9755493         127.391944       0.0148166755        -95.2176491     1.80263408e-05         159.960044        0.921803214          91.289989
          1.86e+10       0.974213234         126.581139        0.015975977        -96.8598689     1.96445299e-05         158.700084        0.920530624         90.4900085
          1.87e+10       0.972793479         125.749689       0.0172350463        -98.5248971     2.14179903e-05         157.416971        0.919239971         89.6832812
          1.88e+10       0.971283909         124.896713        0.018603413        -100.213631     2.33628527e-05         156.109807        0.917930838         88.8697008
          1.89e+10       0.969677887         124.021281       0.0200916142        -101.927017     2.54970682e-05         154.777642        0.916602773         88.0491568
           1.9e+10       0.967968212          123.12241       0.0217113119         -103.66606     2.78406317e-05         153.419472        0.915255279         87.2215353
          1.91e+10       0.966147052         122.199057       0.0234754347        -105.431816     3.04158512e-05         152.034237        0.913887841         86.3867165
          1.92e+10       0.964205901         121.250118       0.0253983154         -107.22541     3.32476165e-05         150.620814        0.912499883         85.5445768
          1.93e+10       0.962135503         120.274423       0.0274958697         -109.04803     3.63637402e-05         149.178015        0.911090789         84.6949866
          1.94e+10        0.95992578         119.270728       0.0297857845        -110.900931     3.97953247e-05         147.704578        0.909659897         83.8378108
          1.95e+10       0.957565751         118.237715       0.0322877337        -112.785452     4.35771871e-05         146.199168        0.908206478         82.9729078
          1.96e+10       0.955043439         117.173981       0.0350236306        -114.703009     4.77483468e-05         144.660366        0.906729745         82.1001291
          1.97e+10       0.952345786         116.078036       0.0380178888        -116.655105     5.23525557e-05         143.086666        0.905228833         81.2193197
          1.98e+10       0.949458513         114.948293       0.0412977688        -118.643343     5.74389616e-05         141.476466        0.903702806         80.3303149
          1.99e+10       0.946366035         113.783064       0.0448937008        -120.669425     6.30627816e-05         139.828064        0.902150628         79.4329428
             2e+10       0.943051291         112.580545       0.0488397286        -122.735163     6.92861652e-05         138.139647        0.900571177         78.5270205
          2.01e+10       0.939495629         111.338819       0.0531739409        -124.842482     7.61790871e-05         136.409284        0.898963209          77.612356
          2.02e+10       0.935678618         110.055835       0.0579390236        -126.993441     8.38204534e-05          134.63492        0.897325357         76.6887448
          2.03e+10       0.931577871         108.729404       0.0631828586        -129.190235     9.22993216e-05         132.814358         0.89565612         75.7559698
          2.04e+10       0.927168865         107.357188       0.0689591893        -131.435198     0.000101716288         130.945261        0.893953829         74.8138011
          2.05e+10       0.922424687         105.936685       0.0753284412        -133.730832     0.000112185146         129.025126        0.892216649         73.8619922
          2.06e+10       0.917315853         104.465221       0.0823585544        -136.079804     0.000123834666         127.051288        0.890442525         72.9002815
          2.07e+10       0.911809967         102.939926       0.0901260783        -138.484967     0.000136810826          125.02089        0.888629192         71.9283872
          2.08e+10       0.905871531         101.357735        0.098717244        -140.949367     0.000151279122         122.930885        0.886774108         70.9460089
          2.09e+10       0.899461569         99.7153577        0.108229346        -143.476266     0.000167427466         120.778012        0.884874439         69.9528229
           2.1e+10        0.89253732         98.0092646        0.118772231        -146.069153     0.000185469362         118.558779        0.882927009         68.9484806
          2.11e+10       0.885051916         96.2356734        0.130469972        -148.731757     0.000205647548         116.269455        0.880928246         67.9326072
          2.12e+10       0.876953949         94.3905203        0.143462887        -151.468081     0.000228238298         113.906041        0.878874127         66.9047955
          2.13e+10       0.868187201         92.4694501        0.157909624        -154.282388     0.000253556068         111.464267        0.876760097         65.8646079
          2.14e+10       0.858690094         90.4677769        0.173989817        -157.179259     0.000281959255         108.939555        0.874581003         64.8115664
          2.15e+10       0.848395485         88.3804779        0.191906723        -160.163581     0.000313856155         106.327016        0.872330969         63.7451552
