! Touchstone Ver. 1.0 
! Fri May  5 20:23:08 2023
! Number of ports is 2
# Hz	S	DB	R	50.000000
! SCATTERING PARAMETERS  :
1.00000000e+07    -0.013278  -0.210774   -58.2108  -43.533   -162.799  -119.968   -1.58414e-07  179.965  
2.00000000e+07    -0.0221461  -0.31144   -50.0284  -62.6685   -147.267  -140.722   -8.17598e-07   179.93  
3.00000000e+07    -0.0251857  -0.409507   -45.9754  -71.2386   -139.182  -151.921   -2.03653e-06  179.895  
4.00000000e+07    -0.0264373  -0.514047   -43.2788  -75.9011   -133.764  -158.457   -3.78593e-06  179.861  
5.00000000e+07    -0.0270545  -0.62275   -41.2471  -78.8165   -129.681  -162.666   -6.05158e-06  179.826  
6.00000000e+07    -0.0274  -0.733938   -39.6122  -80.8177   -126.397  -165.592   -8.828e-06  179.791  
7.00000000e+07    -0.0276116  -0.846676   -38.2422  -82.2844   -123.649  -167.745   -1.21129e-05  179.756  
8.00000000e+07    -0.02775  -0.960431   -37.0622  -83.4125   -121.282   -169.4   -1.59053e-05  179.721  
9.00000000e+07    -0.0278451  -1.07489   -36.0253  -84.3131   -119.204  -170.715   -2.02046e-05  179.686  
1.00000000e+08    -0.027913  -1.18984   -35.1003  -85.0535   -117.351  -171.79   -2.50106e-05  179.652  
1.10000000e+08    -0.027963  -1.30516   -34.2652  -85.6769   -115.678  -172.687   -3.03232e-05  179.617  
1.20000000e+08    -0.0280006  -1.42076   -33.5039  -86.2123   -114.153  -173.452   -3.61423e-05  179.582  
1.30000000e+08    -0.0280294  -1.53658   -32.8044  -86.6799   -112.752  -174.113   -4.24679e-05  179.547  
1.40000000e+08    -0.0280518  -1.65256   -32.1573  -87.0941   -111.457  -174.693   -4.93001e-05  179.512  
1.50000000e+08    -0.0280694  -1.76868   -31.5554  -87.4656   -110.252  -175.207   -5.66388e-05  179.477  
1.60000000e+08    -0.0280833  -1.88491   -30.9927  -87.8022   -109.126  -175.668   -6.44841e-05  179.442  
1.70000000e+08    -0.0280943  -2.00123   -30.4643  -88.1102   -108.068  -176.085   -7.28361e-05  179.408  
1.80000000e+08    -0.028103  -2.11762   -29.9664  -88.3943   -107.072  -176.465   -8.16948e-05  179.373  
1.90000000e+08    -0.0281099  -2.23407   -29.4956  -88.6582   -106.129  -176.815   -9.10604e-05  179.338  
2.00000000e+08    -0.0281152  -2.35058   -29.0491  -88.905   -105.236  -177.138   -0.000100933  179.303  
2.10000000e+08    -0.0281193  -2.46712   -28.6245  -89.1372   -104.386  -177.438   -0.000111312  179.268  
2.20000000e+08    -0.0281223  -2.58371   -28.2197  -89.3566   -103.576  -177.719   -0.000122199  179.233  
2.30000000e+08    -0.0281244  -2.70032   -27.8331  -89.565   -102.802  -177.983   -0.000133593  179.198  
2.40000000e+08    -0.0281257  -2.81697   -27.4629  -89.7637   -102.062  -178.232   -0.000145494  179.164  
2.50000000e+08    -0.0281263  -2.93363   -27.108  -89.9539   -101.351  -178.468   -0.000157903  179.129  
2.60000000e+08    -0.0281263  -3.05031   -26.767  -90.1366   -100.669  -178.692   -0.000170819  179.094  
2.70000000e+08    -0.0281258  -3.16701   -26.439  -90.3125   -100.012  -178.906   -0.000184243  179.059  
2.80000000e+08    -0.0281248  -3.28372   -26.1229  -90.4825   -99.3799  -179.11   -0.000198175  179.024  
2.90000000e+08    -0.0281234  -3.40045   -25.818  -90.6472   -98.7697  -179.307   -0.000212615  178.989  
3.00000000e+08    -0.0281216  -3.51718   -25.5235  -90.807   -98.1802  -179.496   -0.000227563  178.954  
3.10000000e+08    -0.0281194  -3.63392   -25.2386  -90.9625   -97.6101  -179.678   -0.000243019   178.92  
3.20000000e+08    -0.0281169  -3.75066   -24.9628  -91.114   -97.0582  -179.854   -0.000258984  178.885  
3.30000000e+08    -0.028114  -3.86741   -24.6956  -91.2619   -96.5233  179.976   -0.000275457   178.85  
3.40000000e+08    -0.0281109  -3.98417   -24.4363  -91.4065   -96.0045   179.81   -0.00029244  178.815  
3.50000000e+08    -0.0281075  -4.10092   -24.1846  -91.5482   -95.5007  179.649   -0.000309931   178.78  
3.60000000e+08    -0.0281039  -4.21768   -23.9401  -91.6871   -95.0112  179.493   -0.000327931  178.745  
3.70000000e+08    -0.0281  -4.33443   -23.7022  -91.8234   -94.5351   179.34   -0.000346441   178.71  
3.80000000e+08    -0.0280958  -4.45118   -23.4707  -91.9575   -94.0718  179.191   -0.00036546  178.676  
3.90000000e+08    -0.0280915  -4.56794   -23.2453  -92.0894   -93.6205  179.045   -0.000384988  178.641  
4.00000000e+08    -0.0280869  -4.68469   -23.0256  -92.2193   -93.1807  178.903   -0.000405027  178.606  
4.10000000e+08    -0.0280821  -4.80143   -22.8113  -92.3473   -92.7518  178.763   -0.000425576  178.571  
4.20000000e+08    -0.0280771  -4.91817   -22.6022  -92.4737   -92.3332  178.626   -0.000446635  178.536  
4.30000000e+08    -0.0280719  -5.03491   -22.3981  -92.5984   -91.9246  178.491   -0.000468205  178.501  
4.40000000e+08    -0.0280665  -5.15164   -22.1987  -92.7217   -91.5253  178.358   -0.000490285  178.466  
4.50000000e+08    -0.0280609  -5.26837   -22.0038  -92.8436   -91.1351  178.228   -0.000512876  178.431  
4.60000000e+08    -0.0280552  -5.38509   -21.8132  -92.9642   -90.7534    178.1   -0.000535979  178.397  
4.70000000e+08    -0.0280493  -5.5018   -21.6267  -93.0836    -90.38  177.973   -0.000559593  178.362  
4.80000000e+08    -0.0280432  -5.6185   -21.4441  -93.2018   -90.0145  177.849   -0.000583718  178.327  
4.90000000e+08    -0.0280369  -5.7352   -21.2654  -93.319   -89.6565  177.726   -0.000608356  178.292  
5.00000000e+08    -0.0280304  -5.85189   -21.0902  -93.4351   -89.3058  177.604   -0.000633506  178.257  
5.10000000e+08    -0.0280238  -5.96857   -20.9186  -93.5504   -88.9621  177.484   -0.000659168  178.222  
5.20000000e+08    -0.028017  -6.08524   -20.7503  -93.6647   -88.625  177.366   -0.000685342  178.187  
5.30000000e+08    -0.0280101  -6.20191   -20.5853  -93.7782   -88.2944  177.248   -0.00071203  178.152  
5.40000000e+08    -0.028003  -6.31856   -20.4233  -93.8909    -87.97  177.132   -0.000739231  178.118  
5.50000000e+08    -0.0279957  -6.4352   -20.2643  -94.0028   -87.6516  177.017   -0.000766945  178.083  
5.60000000e+08    -0.0279883  -6.55183   -20.1082  -94.114   -87.3389  176.903   -0.000795174  178.048  
5.70000000e+08    -0.0279808  -6.66845   -19.9549  -94.2246   -87.0318  176.791   -0.000823916  178.013  
5.80000000e+08    -0.027973  -6.78506   -19.8043  -94.3345   -86.7301  176.679   -0.000853173  177.978  
5.90000000e+08    -0.0279652  -6.90166   -19.6563  -94.4438   -86.4335  176.568   -0.000882944  177.943  
6.00000000e+08    -0.0279571  -7.01824   -19.5108  -94.5525   -86.1419  176.458   -0.00091323  177.908  
6.10000000e+08    -0.027949  -7.13481   -19.3677  -94.6606   -85.8552  176.349   -0.000944031  177.873  
6.20000000e+08    -0.0279406  -7.25137   -19.2269  -94.7683   -85.5732  176.241   -0.000975348  177.839  
6.30000000e+08    -0.0279322  -7.36792   -19.0884  -94.8754   -85.2957  176.133   -0.00100718  177.804  
6.40000000e+08    -0.0279236  -7.48445   -18.9522  -94.9821   -85.0225  176.026   -0.00103953  177.769  
6.50000000e+08    -0.0279148  -7.60097   -18.818  -95.0883   -84.7537   175.92   -0.0010724  177.734  
6.60000000e+08    -0.0279059  -7.71748   -18.6859  -95.1941   -84.4889  175.815   -0.00110578  177.699  
6.70000000e+08    -0.0278968  -7.83397   -18.5558  -95.2994   -84.2282   175.71   -0.00113968  177.664  
6.80000000e+08    -0.0278876  -7.95045   -18.4277  -95.4044   -83.9713  175.606   -0.00117409  177.629  
6.90000000e+08    -0.0278783  -8.06691   -18.3014  -95.5089   -83.7182  175.502   -0.00120903  177.594  
7.00000000e+08    -0.0278688  -8.18336   -18.177  -95.6131   -83.4688  175.399   -0.00124448  177.559  
7.10000000e+08    -0.0278592  -8.29979   -18.0544  -95.717   -83.2229  175.297   -0.00128045  177.524  
7.20000000e+08    -0.0278495  -8.41621   -17.9335  -95.8205   -82.9805  175.195   -0.00131694   177.49  
7.30000000e+08    -0.0278396  -8.53261   -17.8143  -95.9237   -82.7414  175.093   -0.00135395  177.455  
7.40000000e+08    -0.0278295   -8.649   -17.6967  -96.0266   -82.5056  174.992   -0.00139148   177.42  
7.50000000e+08    -0.0278193  -8.76537   -17.5807  -96.1292   -82.273  174.892   -0.00142953  177.385  
7.60000000e+08    -0.027809  -8.88172   -17.4663  -96.2315   -82.0435  174.792   -0.0014681   177.35  
7.70000000e+08    -0.0277986  -8.99805   -17.3534  -96.3335   -81.817  174.692   -0.00150719  177.315  
7.80000000e+08    -0.027788  -9.11437   -17.2419  -96.4353   -81.5935  174.593   -0.00154681   177.28  
7.90000000e+08    -0.0277773  -9.23067   -17.1319  -96.5368   -81.3728  174.494   -0.00158694  177.245  
8.00000000e+08    -0.0277664  -9.34695   -17.0233  -96.638   -81.1549  174.395   -0.00162759   177.21  
8.10000000e+08    -0.0277554  -9.46322   -16.9161  -96.7391   -80.9397  174.297   -0.00166877  177.175  
8.20000000e+08    -0.0277443  -9.57947   -16.8102  -96.8398   -80.7272    174.2   -0.00171047   177.14  
8.30000000e+08    -0.027733  -9.69569   -16.7056  -96.9404   -80.5173  174.102   -0.0017527  177.106  
8.40000000e+08    -0.0277216  -9.8119   -16.6023  -97.0408   -80.3099  174.005   -0.00179544  177.071  
8.50000000e+08    -0.0277101  -9.92809   -16.5002  -97.1409   -80.105  173.908   -0.00183872  177.036  
8.60000000e+08    -0.0276984  -10.0443   -16.3993  -97.2409   -79.9025  173.812   -0.00188251  177.001  
8.70000000e+08    -0.0276866  -10.1604   -16.2996  -97.3406   -79.7024  173.715   -0.00192683  176.966  
8.80000000e+08    -0.0276747  -10.2765   -16.201  -97.4402   -79.5046   173.62   -0.00197168  176.931  
8.90000000e+08    -0.0276626  -10.3927   -16.1036  -97.5395   -79.309  173.524   -0.00201705  176.896  
9.00000000e+08    -0.0276504  -10.5088   -16.0073  -97.6387   -79.1156  173.429   -0.00206295  176.861  
9.10000000e+08    -0.0276381  -10.6248   -15.9121  -97.7378   -78.9244  173.333   -0.00210937  176.826  
9.20000000e+08    -0.0276256  -10.7409   -15.8179  -97.8366   -78.7352  173.239   -0.00215633  176.791  
9.30000000e+08    -0.027613  -10.8569   -15.7248  -97.9353   -78.5482  173.144   -0.0022038  176.756  
9.40000000e+08    -0.0276003  -10.9729   -15.6327  -98.0339   -78.3631   173.05   -0.00225181  176.721  
9.50000000e+08    -0.0275874  -11.0889   -15.5416  -98.1323   -78.1801  172.956   -0.00230035  176.686  
9.60000000e+08    -0.0275745  -11.2049   -15.4514  -98.2305   -77.999  172.862   -0.00234941  176.651  
9.70000000e+08    -0.0275614  -11.3208   -15.3622  -98.3286   -77.8197  172.768   -0.00239901  176.617  
9.80000000e+08    -0.0275481  -11.4367   -15.2739  -98.4266   -77.6423  172.674   -0.00244913  176.582  
9.90000000e+08    -0.0275348  -11.5526   -15.1866  -98.5244   -77.4668  172.581   -0.00249979  176.547  
1.00000000e+09    -0.0275213  -11.6685   -15.1001  -98.6221   -77.293  172.488   -0.00255097  176.512  
1.01000000e+09    -0.0275077  -11.7844   -15.0145  -98.7197   -77.1209  172.395   -0.00260269  176.477  
1.02000000e+09    -0.0274939  -11.9002   -14.9298  -98.8172   -76.9506  172.302   -0.00265494  176.442  
1.03000000e+09    -0.02748  -12.016   -14.8459  -98.9145   -76.782   172.21   -0.00270772  176.407  
1.04000000e+09    -0.027466  -12.1318   -14.7628  -99.0117   -76.615  172.118   -0.00276104  176.372  
1.05000000e+09    -0.0274519  -12.2475   -14.6806  -99.1088   -76.4496  172.025   -0.00281488  176.337  
1.06000000e+09    -0.0274377  -12.3633   -14.5991  -99.2058   -76.2858  171.933   -0.00286927  176.302  
1.07000000e+09    -0.0274233  -12.479   -14.5185  -99.3026   -76.1235  171.841   -0.00292418  176.267  
1.08000000e+09    -0.0274088  -12.5947   -14.4386  -99.3994   -75.9628   171.75   -0.00297964  176.232  
1.09000000e+09    -0.0273942  -12.7103   -14.3594  -99.4961   -75.8036  171.658   -0.00303562  176.197  
1.10000000e+09    -0.0273794  -12.826   -14.281  -99.5926   -75.6459  171.567   -0.00309215  176.162  
1.11000000e+09    -0.0273646  -12.9416   -14.2033  -99.6891   -75.4895  171.476   -0.00314921  176.127  
1.12000000e+09    -0.0273496  -13.0572   -14.1263  -99.7854   -75.3347  171.385   -0.0032068  176.092  
1.13000000e+09    -0.0273345  -13.1727   -14.0501  -99.8817   -75.1812  171.294   -0.00326494  176.057  
1.14000000e+09    -0.0273192  -13.2883   -13.9745  -99.9778   -75.029  171.203   -0.00332361  176.022  
1.15000000e+09    -0.0273039  -13.4038   -13.8996  -100.074   -74.8783  171.112   -0.00338283  175.987  
1.16000000e+09    -0.0272884  -13.5192   -13.8254  -100.17   -74.7288  171.022   -0.00344258  175.952  
1.17000000e+09    -0.0272728  -13.6347   -13.7518  -100.266   -74.5806  170.931   -0.00350287  175.917  
1.18000000e+09    -0.0272571  -13.7501   -13.6788  -100.362   -74.4338  170.841   -0.0035637  175.882  
1.19000000e+09    -0.0272412  -13.8655   -13.6065  -100.457   -74.2881  170.751   -0.00362508  175.847  
1.20000000e+09    -0.0272253  -13.9809   -13.5348  -100.553   -74.1437  170.661   -0.00368699  175.812  
1.21000000e+09    -0.0272092  -14.0963   -13.4638  -100.649   -74.0006  170.571   -0.00374945  175.777  
1.22000000e+09    -0.027193  -14.2116   -13.3933  -100.744   -73.8586  170.481   -0.00381245  175.742  
1.23000000e+09    -0.0271767  -14.3269   -13.3234  -100.839   -73.7178  170.391   -0.00387599  175.707  
1.24000000e+09    -0.0271603  -14.4421   -13.2541  -100.935   -73.5781  170.302   -0.00394008  175.672  
1.25000000e+09    -0.0271437  -14.5574   -13.1854  -101.03   -73.4396  170.212   -0.00400472  175.637  
1.26000000e+09    -0.027127  -14.6726   -13.1172  -101.125   -73.3022  170.123   -0.0040699  175.602  
1.27000000e+09    -0.0271103  -14.7878   -13.0496  -101.22   -73.1659  170.034   -0.00413562  175.567  
1.28000000e+09    -0.0270934  -14.9029   -12.9825  -101.315   -73.0307  169.944   -0.00420189  175.532  
1.29000000e+09    -0.0270763  -15.018   -12.916  -101.41   -72.8966  169.855   -0.00426871  175.497  
1.30000000e+09    -0.0270592  -15.1331    -12.85  -101.505   -72.7635  169.766   -0.00433608  175.462  
1.31000000e+09    -0.027042  -15.2482   -12.7845   -101.6   -72.6315  169.678   -0.00440399  175.427  
1.32000000e+09    -0.0270246  -15.3632   -12.7196  -101.695   -72.5005  169.589   -0.00447246  175.392  
1.33000000e+09    -0.0270071  -15.4782   -12.6551  -101.79   -72.3704    169.5   -0.00454147  175.357  
1.34000000e+09    -0.0269895  -15.5932   -12.5912  -101.884   -72.2414  169.412   -0.00461104  175.322  
1.35000000e+09    -0.0269718  -15.7081   -12.5277  -101.979   -72.1134  169.323   -0.00468115  175.287  
1.36000000e+09    -0.026954  -15.823   -12.4648  -102.073   -71.9863  169.235   -0.00475182  175.252  
1.37000000e+09    -0.0269361  -15.9379   -12.4023  -102.168   -71.8601  169.146   -0.00482304  175.217  
1.38000000e+09    -0.026918  -16.0528   -12.3402  -102.262   -71.7349  169.058   -0.00489481  175.182  
1.39000000e+09    -0.0268999  -16.1676   -12.2787  -102.357   -71.6106   168.97   -0.00496714  175.147  
1.40000000e+09    -0.0268816  -16.2824   -12.2176  -102.451   -71.4872  168.882   -0.00504002  175.112  
1.41000000e+09    -0.0268632  -16.3971   -12.1569  -102.545   -71.3647  168.794   -0.00511345  175.077  
1.42000000e+09    -0.0268447  -16.5118   -12.0967  -102.639   -71.2431  168.706   -0.00518745  175.042  
1.43000000e+09    -0.0268261  -16.6265   -12.0369  -102.733   -71.1224  168.618   -0.00526199  175.007  
1.44000000e+09    -0.0268074  -16.7412   -11.9776  -102.827   -71.0025   168.53   -0.0053371  174.972  
1.45000000e+09    -0.0267886  -16.8558   -11.9187  -102.921   -70.8835  168.443   -0.00541276  174.937  
1.46000000e+09    -0.0267697  -16.9704   -11.8602  -103.015   -70.7653  168.355   -0.00548898  174.901  
1.47000000e+09    -0.0267507  -17.0849   -11.8021  -103.109   -70.6479  168.268   -0.00556577  174.866  
1.48000000e+09    -0.0267315  -17.1995   -11.7445  -103.203   -70.5313   168.18   -0.00564311  174.831  
1.49000000e+09    -0.0267123  -17.314   -11.6872  -103.297   -70.4156  168.093   -0.00572101  174.796  
1.50000000e+09    -0.0266929  -17.4284   -11.6304  -103.391   -70.3006  168.005   -0.00579947  174.761  
1.51000000e+09    -0.0266735  -17.5428   -11.5739  -103.484   -70.1864  167.918   -0.0058785  174.726  
1.52000000e+09    -0.0266539  -17.6572   -11.5178  -103.578   -70.073  167.831   -0.00595808  174.691  
1.53000000e+09    -0.0266342  -17.7716   -11.4621  -103.671   -69.9603  167.744   -0.00603824  174.656  
1.54000000e+09    -0.0266144  -17.8859   -11.4068  -103.765   -69.8484  167.657   -0.00611895  174.621  
1.55000000e+09    -0.0265946  -18.0002   -11.3519  -103.859   -69.7372   167.57   -0.00620023  174.586  
1.56000000e+09    -0.0265746  -18.1144   -11.2973  -103.952   -69.6268  167.483   -0.00628208  174.551  
1.57000000e+09    -0.0265545  -18.2287   -11.2431  -104.045   -69.5171  167.396   -0.00636449  174.516  
1.58000000e+09    -0.0265343  -18.3428   -11.1893  -104.139   -69.4081  167.309   -0.00644747  174.481  
1.59000000e+09    -0.026514  -18.457   -11.1358  -104.232   -69.2998  167.223   -0.00653102  174.445  
1.60000000e+09    -0.0264936  -18.5711   -11.0826  -104.325   -69.1921  167.136   -0.00661514   174.41  
1.61000000e+09    -0.0264731  -18.6852   -11.0299  -104.419   -69.0852  167.049   -0.00669982  174.375  
1.62000000e+09    -0.0264525  -18.7992   -10.9774  -104.512   -68.979  166.963   -0.00678508   174.34  
1.63000000e+09    -0.0264318  -18.9132   -10.9253  -104.605   -68.8734  166.876   -0.00687091  174.305  
1.64000000e+09    -0.026411  -19.0272   -10.8735  -104.698   -68.7685   166.79   -0.0069573   174.27  
1.65000000e+09    -0.0263901  -19.1411   -10.8221  -104.791   -68.6642  166.704   -0.00704428  174.235  
1.66000000e+09    -0.0263691  -19.255   -10.771  -104.884   -68.5606  166.617   -0.00713182    174.2  
1.67000000e+09    -0.026348  -19.3688   -10.7202  -104.977   -68.4576  166.531   -0.00721994  174.164  
1.68000000e+09    -0.0263268  -19.4826   -10.6697  -105.07   -68.3553  166.445   -0.00730863  174.129  
1.69000000e+09    -0.0263055  -19.5964   -10.6196  -105.163   -68.2536  166.359   -0.0073979  174.094  
1.70000000e+09    -0.0262841  -19.7102   -10.5697  -105.256   -68.1525  166.273   -0.00748775  174.059  
1.71000000e+09    -0.0262626  -19.8239   -10.5202  -105.348   -68.052  166.186   -0.00757817  174.024  
1.72000000e+09    -0.026241  -19.9375   -10.471  -105.441   -67.9521  166.101   -0.00766918  173.989  
1.73000000e+09    -0.0262193  -20.0512   -10.422  -105.534   -67.8528  166.015   -0.00776076  173.954  
1.74000000e+09    -0.0261975  -20.1647   -10.3734  -105.626   -67.7541  165.929   -0.00785292  173.918  
1.75000000e+09    -0.0261757  -20.2783   -10.3251  -105.719   -67.6559  165.843   -0.00794566  173.883  
1.76000000e+09    -0.0261537  -20.3918   -10.277  -105.812   -67.5584  165.757   -0.00803898  173.848  
1.77000000e+09    -0.0261316  -20.5053   -10.2293  -105.904   -67.4614  165.671   -0.00813288  173.813  
1.78000000e+09    -0.0261095  -20.6187   -10.1818  -105.997   -67.365  165.586   -0.00822737  173.778  
1.79000000e+09    -0.0260872  -20.7321   -10.1346  -106.089   -67.2691    165.5   -0.00832244  173.743  
1.80000000e+09    -0.0260649  -20.8454   -10.0877  -106.182   -67.1738  165.415   -0.00841809  173.707  
1.81000000e+09    -0.0260425  -20.9588   -10.041  -106.274   -67.079  165.329   -0.00851434  173.672  
1.82000000e+09    -0.0260199  -21.072   -9.99468  -106.366   -66.9848  165.244   -0.00861116  173.637  
1.83000000e+09    -0.0259973  -21.1853   -9.94859  -106.459   -66.8911  165.158   -0.00870858  173.602  
1.84000000e+09    -0.0259746  -21.2984   -9.90276  -106.551   -66.7979  165.073   -0.00880658  173.567  
1.85000000e+09    -0.0259518  -21.4116   -9.8572  -106.643   -66.7053  164.987   -0.00890517  173.532  
1.86000000e+09    -0.025929  -21.5247   -9.8119  -106.735   -66.6131  164.902   -0.00900435  173.496  
1.87000000e+09    -0.025906  -21.6378   -9.76686  -106.828   -66.5215  164.817   -0.00910412  173.461  
1.88000000e+09    -0.0258829  -21.7508   -9.72208  -106.92   -66.4304  164.732   -0.00920448  173.426  
1.89000000e+09    -0.0258598  -21.8638   -9.67754  -107.012   -66.3397  164.647   -0.00930544  173.391  
