! Touchstone Ver. 1.0 
! Fri May  5 20:33:45 2023
! Number of ports is 2
# Hz	S	DB	R	50.000000
! SCATTERING PARAMETERS  :
1.00000000e+07    -0.013278  -0.210774   -122.436  -86.9434   -331.612  120.187   -1.58451e-07  179.965  
2.00000000e+07    -0.0221461  -0.31144   -106.066  -125.147   -300.544   78.746   -8.18144e-07   179.93  
3.00000000e+07    -0.0251857  -0.409507   -97.9587  -142.22   -284.372  56.4152   -2.03829e-06  179.895  
4.00000000e+07    -0.0264373  -0.514047   -92.5648  -151.476   -273.535  43.4129   -3.78952e-06  179.861  
5.00000000e+07    -0.0270545  -0.62275   -88.5011  -157.235   -265.368  35.0651   -6.05756e-06  179.826  
6.00000000e+07    -0.0274  -0.733938   -85.2311  -161.165   -258.802  29.2861   -8.83687e-06  179.791  
7.00000000e+07    -0.0276116  -0.846676   -82.4909  -164.024   -253.303   25.054   -1.21252e-05  179.756  
8.00000000e+07    -0.02775  -0.960431   -80.1307  -166.206   -248.571  21.8194   -1.59214e-05  179.721  
9.00000000e+07    -0.0278451  -1.07489   -78.0567  -167.933   -244.414  19.2634   -2.0225e-05  179.686  
1.00000000e+08    -0.0279131  -1.18984   -76.2065  -169.339   -240.707  17.1888   -2.50356e-05  179.652  
1.10000000e+08    -0.027963  -1.30516   -74.536  -170.511   -237.361  15.4679   -3.03531e-05  179.617  
1.20000000e+08    -0.0280006  -1.42076   -73.0133  -171.507   -234.312  14.0141   -3.61775e-05  179.582  
1.30000000e+08    -0.0280294  -1.53658   -71.614  -172.367   -231.51   12.767   -4.25086e-05  179.547  
1.40000000e+08    -0.0280518  -1.65256   -70.3197  -173.12   -228.919  11.6829   -4.93463e-05  179.512  
1.50000000e+08    -0.0280694  -1.76868   -69.1156  -173.787   -226.509  10.7296   -5.66908e-05  179.477  
1.60000000e+08    -0.0280833  -1.88491   -67.9899  -174.385   -224.256  9.88302   -6.45419e-05  179.442  
1.70000000e+08    -0.0280943  -2.00122   -66.9329  -174.926   -222.141   9.1244   -7.28997e-05  179.408  
1.80000000e+08    -0.0281031  -2.11761   -65.9368  -175.418   -220.147  8.43925   -8.17642e-05  179.373  
1.90000000e+08    -0.0281099  -2.23407   -64.9949  -175.871   -218.262  7.81606   -9.11353e-05  179.338  
2.00000000e+08    -0.0281153  -2.35057   -64.1016  -176.289   -216.475  7.24561   -0.000101013  179.303  
2.10000000e+08    -0.0281194  -2.46712   -63.2521  -176.677   -214.775  6.72041   -0.000111398  179.268  
2.20000000e+08    -0.0281224  -2.5837   -62.4422  -177.041   -213.155  6.23433   -0.000122289  179.233  
2.30000000e+08    -0.0281245  -2.70032   -61.6686  -177.382   -211.607  5.78231   -0.000133687  179.198  
2.40000000e+08    -0.0281258  -2.81696   -60.928  -177.704   -210.125  5.36009   -0.000145591  179.164  
2.50000000e+08    -0.0281264  -2.93362   -60.2177  -178.008   -208.704  4.96413   -0.000158003  179.129  
2.60000000e+08    -0.0281264  -3.0503   -59.5354  -178.298   -207.339   4.5914   -0.000170921  179.094  
2.70000000e+08    -0.0281259   -3.167   -58.8789  -178.574   -206.026  4.23934   -0.000184346  179.059  
2.80000000e+08    -0.0281249  -3.28371   -58.2463  -178.839   -204.76  3.90574   -0.000198277  179.024  
2.90000000e+08    -0.0281235  -3.40043   -57.636  -179.092   -203.539   3.5887   -0.000212716  178.989  
3.00000000e+08    -0.0281217  -3.51716   -57.0465  -179.336   -202.36  3.28656   -0.000227661  178.954  
3.10000000e+08    -0.0281195  -3.6339   -56.4763  -179.572   -201.219  2.99789   -0.000243113   178.92  
3.20000000e+08    -0.028117  -3.75064   -55.9243  -179.799   -200.115  2.72143   -0.000259072  178.885  
3.30000000e+08    -0.0281141  -3.86739   -55.3893  179.981   -199.045  2.45608   -0.000275538   178.85  
3.40000000e+08    -0.028111  -3.98414   -54.8703  179.767   -198.007  2.20085   -0.000292511  178.815  
3.50000000e+08    -0.0281076  -4.10089   -54.3663   179.56   -196.998  1.95489   -0.00030999   178.78  
3.60000000e+08    -0.0281039  -4.21764   -53.8766  179.358   -196.019  1.71741   -0.000327977  178.745  
3.70000000e+08    -0.0281  -4.3344   -53.4004  179.161   -195.066  1.48774   -0.000346471   178.71  
3.80000000e+08    -0.0280958  -4.45115   -52.9368  178.968   -194.139  1.26526   -0.000365471  178.676  
3.90000000e+08    -0.0280914  -4.5679   -52.4853   178.78   -193.236  1.04942   -0.000384979  178.641  
4.00000000e+08    -0.0280868  -4.68464   -52.0453  178.596   -192.356  0.839724   -0.000404994  178.606  
4.10000000e+08    -0.028082  -4.80138   -51.6162  178.415   -191.497  0.635719   -0.000425516  178.571  
4.20000000e+08    -0.028077  -4.91812   -51.1974  178.238   -190.659  0.437001   -0.000446545  178.536  
4.30000000e+08    -0.0280718  -5.03485   -50.7884  178.065   -189.841  0.243203   -0.000468081  178.501  
4.40000000e+08    -0.0280664  -5.15158   -50.3889  177.894   -189.042  0.0539912   -0.000490124  178.466  
4.50000000e+08    -0.0280607  -5.2683   -49.9984  177.726   -188.261  -0.13094   -0.000512675  178.432  
4.60000000e+08    -0.0280549  -5.38502   -49.6165   177.56   -187.497  -0.31187   -0.000535732  178.397  
4.70000000e+08    -0.028049  -5.50173   -49.2428  177.397   -186.749  -0.489052   -0.000559297  178.362  
4.80000000e+08    -0.0280428  -5.61843   -48.877  177.236   -186.018  -0.66272   -0.00058337  178.327  
4.90000000e+08    -0.0280365  -5.73512   -48.5187  177.077   -185.301  -0.833089   -0.00060795  178.292  
5.00000000e+08    -0.02803  -5.8518   -48.1677  176.921   -184.599  -1.00036   -0.000633037  178.257  
5.10000000e+08    -0.0280233  -5.96848   -47.8236  176.766   -183.911  -1.1647   -0.000658631  178.222  
5.20000000e+08    -0.0280164  -6.08515   -47.4863  176.613   -183.236  -1.3263   -0.000684733  178.187  
5.30000000e+08    -0.0280094  -6.2018   -47.1553  176.462   -182.574  -1.48529   -0.000711343  178.153  
5.40000000e+08    -0.0280022  -6.31845   -46.8306  176.312   -181.924  -1.64184   -0.00073846  178.118  
5.50000000e+08    -0.0279949  -6.43508   -46.5118  176.164   -181.286  -1.79606   -0.000766084  178.083  
5.60000000e+08    -0.0279874  -6.55171   -46.1988  176.017   -180.66  -1.94809   -0.000794216  178.048  
5.70000000e+08    -0.0279797  -6.66832   -45.8913  175.871   -180.045  -2.09804   -0.000822856  178.013  
5.80000000e+08    -0.0279719  -6.78492   -45.5892  175.727   -179.441  -2.24601   -0.000852003  177.978  
5.90000000e+08    -0.0279639  -6.90151   -45.2922  175.584   -178.847  -2.39211   -0.000881659  177.943  
6.00000000e+08    -0.0279557  -7.01809   -45.0002  175.442   -178.263  -2.53643   -0.000911822  177.908  
6.10000000e+08    -0.0279474  -7.13466   -44.7131  175.302   -177.688  -2.67905   -0.000942492  177.874  
6.20000000e+08    -0.027939  -7.25121   -44.4307  175.162   -177.123  -2.82006   -0.000973671  177.839  
6.30000000e+08    -0.0279304  -7.36775   -44.1527  175.023   -176.567  -2.95954   -0.00100536  177.804  
6.40000000e+08    -0.0279216  -7.48427   -43.8792  174.886   -176.02  -3.09755   -0.00103755  177.769  
6.50000000e+08    -0.0279127  -7.60078   -43.6099  174.749   -175.481  -3.23417   -0.00107025  177.734  
6.60000000e+08    -0.0279036  -7.71728   -43.3447  174.613   -174.951  -3.36945   -0.00110346  177.699  
6.70000000e+08    -0.0278943  -7.83376   -43.0835  174.478   -174.428  -3.50345   -0.00113718  177.664  
6.80000000e+08    -0.027885  -7.95023   -42.8262  174.343   -173.913  -3.63624   -0.00117141  177.629  
6.90000000e+08    -0.0278754  -8.06669   -42.5726   174.21   -173.406  -3.76786   -0.00120614  177.595  
7.00000000e+08    -0.0278657  -8.18312   -42.3227  174.077   -172.906  -3.89836   -0.00124139   177.56  
7.10000000e+08    -0.0278559  -8.29955   -42.0764  173.945   -172.413  -4.0278   -0.00127714  177.525  
7.20000000e+08    -0.0278459  -8.41595   -41.8335  173.813   -171.927  -4.15621   -0.0013134   177.49  
7.30000000e+08    -0.0278358  -8.53234   -41.5939  173.682   -171.448  -4.28363   -0.00135017  177.455  
7.40000000e+08    -0.0278255  -8.64872   -41.3576  173.552   -170.976  -4.41011   -0.00138744   177.42  
7.50000000e+08    -0.027815  -8.76507   -41.1245  173.422   -170.509  -4.53568   -0.00142523  177.385  
7.60000000e+08    -0.0278044  -8.88142   -40.8945  173.293   -170.049  -4.66038   -0.00146352   177.35  
7.70000000e+08    -0.0277937  -8.99774   -40.6675  173.165   -169.595  -4.78424   -0.00150232  177.315  
7.80000000e+08    -0.0277828  -9.11404   -40.4434  173.037   -169.147  -4.9073   -0.00154163   177.28  
7.90000000e+08    -0.0277718  -9.23033   -40.2222  172.909   -168.704  -5.02958   -0.00158145  177.246  
8.00000000e+08    -0.0277606  -9.3466   -40.0038  172.782   -168.267  -5.15111   -0.00162178  177.211  
8.10000000e+08    -0.0277492  -9.46285   -39.7881  172.655   -167.835  -5.27192   -0.00166262  177.176  
8.20000000e+08    -0.0277378  -9.57909   -39.575  172.529   -167.409  -5.39204   -0.00170396  177.141  
8.30000000e+08    -0.0277261  -9.6953   -39.3645  172.404   -166.988  -5.51148   -0.00174582  177.106  
8.40000000e+08    -0.0277143  -9.81149   -39.1566  172.278   -166.572  -5.63028   -0.00178818  177.071  
8.50000000e+08    -0.0277024  -9.92767   -38.9511  172.153   -166.161  -5.74846   -0.00183106  177.036  
8.60000000e+08    -0.0276903  -10.0438   -38.748  172.029   -165.754  -5.86604   -0.00187444  177.001  
8.70000000e+08    -0.0276781   -10.16   -38.5473  171.905   -165.353  -5.98303   -0.00191833  176.966  
8.80000000e+08    -0.0276657  -10.2761   -38.3488  171.781   -164.956  -6.09946   -0.00196273  176.931  
8.90000000e+08    -0.0276532  -10.3922   -38.1526  171.658   -164.563  -6.21535   -0.00200764  176.897  
9.00000000e+08    -0.0276405  -10.5082   -37.9587  171.535   -164.175  -6.33071   -0.00205306  176.862  
9.10000000e+08    -0.0276277  -10.6243   -37.7668  171.412   -163.791  -6.44556   -0.00209899  176.827  
9.20000000e+08    -0.0276147  -10.7403   -37.5771   171.29   -163.412  -6.55992   -0.00214542  176.792  
9.30000000e+08    -0.0276016  -10.8563   -37.3894  171.167   -163.036  -6.6738   -0.00219237  176.757  
9.40000000e+08    -0.0275883  -10.9723   -37.2037  171.046   -162.665  -6.78722   -0.00223983  176.722  
9.50000000e+08    -0.0275749  -11.0883    -37.02  170.924   -162.297  -6.90018   -0.00228779  176.687  
9.60000000e+08    -0.0275613  -11.2043   -36.8382  170.803   -161.933  -7.01272   -0.00233627  176.652  
9.70000000e+08    -0.0275476  -11.3202   -36.6583  170.682   -161.573  -7.12483   -0.00238526  176.617  
9.80000000e+08    -0.0275337  -11.4361   -36.4803  170.561   -161.217  -7.23654   -0.00243475  176.582  
9.90000000e+08    -0.0275197  -11.552   -36.304  170.441   -160.864  -7.34784   -0.00248476  176.547  
1.00000000e+09    -0.0275056  -11.6678   -36.1295  170.321   -160.515  -7.45876   -0.00253527  176.512  
1.01000000e+09    -0.0274913  -11.7836   -35.9568  170.201   -160.17  -7.56931   -0.0025863  176.477  
1.02000000e+09    -0.0274768  -11.8995   -35.7858  170.081   -159.828  -7.67949   -0.00263784  176.443  
1.03000000e+09    -0.0274622  -12.0152   -35.6165  169.962   -159.489  -7.78932   -0.00268988  176.408  
1.04000000e+09    -0.0274474  -12.131   -35.4487  169.843   -159.153  -7.8988   -0.00274244  176.373  
1.05000000e+09    -0.0274325  -12.2467   -35.2826  169.724   -158.821  -8.00795   -0.00279551  176.338  
1.06000000e+09    -0.0274175  -12.3625   -35.1181  169.605   -158.491  -8.11678   -0.00284908  176.303  
1.07000000e+09    -0.0274023  -12.4781   -34.9551  169.486   -158.165  -8.22528   -0.00290317  176.268  
1.08000000e+09    -0.0273869  -12.5938   -34.7937  169.368   -157.842  -8.33348   -0.00295777  176.233  
1.09000000e+09    -0.0273714  -12.7094   -34.6337   169.25   -157.522  -8.44138   -0.00301288  176.198  
1.10000000e+09    -0.0273558  -12.8251   -34.4752  169.132   -157.205  -8.54899   -0.0030685  176.163  
1.11000000e+09    -0.02734  -12.9406   -34.3181  169.014   -156.891  -8.65631   -0.00312463  176.128  
1.12000000e+09    -0.0273241  -13.0562   -34.1625  168.897   -156.579  -8.76335   -0.00318127  176.093  
1.13000000e+09    -0.027308  -13.1717   -34.0082  168.779   -156.27  -8.87012   -0.00323842  176.058  
1.14000000e+09    -0.0272917  -13.2872   -33.8553  168.662   -155.964  -8.97663   -0.00329609  176.023  
1.15000000e+09    -0.0272753  -13.4027   -33.7037  168.545   -155.661  -9.08288   -0.00335426  175.988  
1.16000000e+09    -0.0272588  -13.5182   -33.5535  168.428   -155.36  -9.18889   -0.00341295  175.953  
1.17000000e+09    -0.0272421  -13.6336   -33.4045  168.311   -155.062  -9.29464   -0.00347215  175.918  
1.18000000e+09    -0.0272252  -13.749   -33.2568  168.195   -154.767  -9.40016   -0.00353186  175.883  
1.19000000e+09    -0.0272082  -13.8644   -33.1104  168.078   -154.474  -9.50544   -0.00359208  175.848  
1.20000000e+09    -0.0271911  -13.9797   -32.9652  167.962   -154.183  -9.61049   -0.00365281  175.813  
1.21000000e+09    -0.0271738  -14.095   -32.8212  167.846   -153.895  -9.71532   -0.00371405  175.778  
1.22000000e+09    -0.0271564  -14.2103   -32.6784   167.73   -153.609  -9.81994   -0.00377581  175.743  
1.23000000e+09    -0.0271388  -14.3256   -32.5367  167.614   -153.325  -9.92434   -0.00383807  175.709  
1.24000000e+09    -0.027121  -14.4408   -32.3962  167.498   -153.044  -10.0285   -0.00390085  175.674  
1.25000000e+09    -0.0271031  -14.556   -32.2568  167.383   -152.765  -10.1325   -0.00396414  175.639  
1.26000000e+09    -0.0270851  -14.6712   -32.1186  167.267   -152.489  -10.2363   -0.00402795  175.604  
1.27000000e+09    -0.0270669  -14.7864   -31.9814  167.152   -152.214  -10.3399   -0.00409226  175.569  
1.28000000e+09    -0.0270486  -14.9015   -31.8453  167.037   -151.942  -10.4433   -0.00415709  175.534  
1.29000000e+09    -0.0270301  -15.0166   -31.7103  166.922   -151.672  -10.5465   -0.00422243  175.499  
1.30000000e+09    -0.0270114  -15.1316   -31.5763  166.807   -151.403  -10.6496   -0.00428828  175.464  
1.31000000e+09    -0.0269926  -15.2466   -31.4434  166.692   -151.137  -10.7524   -0.00435464  175.429  
1.32000000e+09    -0.0269737  -15.3616   -31.3115  166.578   -150.873  -10.8551   -0.00442152  175.394  
1.33000000e+09    -0.0269546  -15.4766   -31.1805  166.463   -150.611  -10.9576   -0.00448891  175.359  
1.34000000e+09    -0.0269353  -15.5915   -31.0506  166.348   -150.351   -11.06   -0.00455681  175.324  
1.35000000e+09    -0.0269159  -15.7064   -30.9216  166.234   -150.093  -11.1621   -0.00462523  175.289  
1.36000000e+09    -0.0268963  -15.8213   -30.7936   166.12   -149.837  -11.2642   -0.00469416  175.254  
1.37000000e+09    -0.0268766  -15.9362   -30.6665  166.006   -149.582  -11.366   -0.0047636  175.219  
1.38000000e+09    -0.0268568  -16.051   -30.5403  165.892   -149.33  -11.4677   -0.00483355  175.184  
1.39000000e+09    -0.0268368  -16.1658   -30.4151  165.778   -149.079  -11.5693   -0.00490402  175.149  
1.40000000e+09    -0.0268166  -16.2805   -30.2907  165.664   -148.83  -11.6707   -0.004975  175.114  
1.41000000e+09    -0.0267963  -16.3952   -30.1673   165.55   -148.583  -11.7719   -0.0050465  175.079  
1.42000000e+09    -0.0267758  -16.5099   -30.0447  165.437   -148.338  -11.873   -0.0051185  175.044  
1.43000000e+09    -0.0267552  -16.6245   -29.9229  165.323   -148.094  -11.974   -0.00519103  175.009  
1.44000000e+09    -0.0267344  -16.7392   -29.8021   165.21   -147.852  -12.0748   -0.00526406  174.974  
1.45000000e+09    -0.0267135  -16.8537   -29.682  165.096   -147.612  -12.1755   -0.00533761  174.939  
1.46000000e+09    -0.0266924  -16.9683   -29.5628  164.983   -147.373  -12.2761   -0.00541167  174.904  
1.47000000e+09    -0.0266711  -17.0828   -29.4444   164.87   -147.136  -12.3765   -0.00548625  174.869  
1.48000000e+09    -0.0266498  -17.1973   -29.3268  164.757   -146.901  -12.4768   -0.00556134  174.834  
1.49000000e+09    -0.0266282  -17.3117   -29.2101  164.644   -146.667  -12.577   -0.00563695  174.799  
1.50000000e+09    -0.0266065  -17.4261   -29.094  164.531   -146.435  -12.6771   -0.00571307  174.763  
1.51000000e+09    -0.0265847  -17.5405   -28.9788  164.418   -146.204  -12.777   -0.0057897  174.728  
1.52000000e+09    -0.0265627  -17.6549   -28.8643  164.305   -145.975  -12.8768   -0.00586685  174.693  
1.53000000e+09    -0.0265405  -17.7692   -28.7506  164.193   -145.747  -12.9765   -0.00594452  174.658  
1.54000000e+09    -0.0265182  -17.8834   -28.6376   164.08   -145.521  -13.076   -0.0060227  174.623  
1.55000000e+09    -0.0264957  -17.9977   -28.5254  163.968   -145.296  -13.1755   -0.00610139  174.588  
1.56000000e+09    -0.0264731  -18.1119   -28.4139  163.855   -145.073  -13.2749   -0.0061806  174.553  
1.57000000e+09    -0.0264503  -18.2261   -28.3031  163.743   -144.851  -13.3741   -0.00626032  174.518  
1.58000000e+09    -0.0264274  -18.3402   -28.193  163.631   -144.631  -13.4732   -0.00634056  174.483  
1.59000000e+09    -0.0264043  -18.4543   -28.0836  163.519   -144.412  -13.5722   -0.00642131  174.448  
1.60000000e+09    -0.026381  -18.5683   -27.9748  163.406   -144.194  -13.6711   -0.00650258  174.413  
1.61000000e+09    -0.0263576  -18.6824   -27.8668  163.294   -143.978  -13.7699   -0.00658437  174.378  
1.62000000e+09    -0.0263341  -18.7964   -27.7594  163.182   -143.763  -13.8686   -0.00666667  174.343  
1.63000000e+09    -0.0263104  -18.9103   -27.6527  163.071   -143.549  -13.9673   -0.00674948  174.308  
1.64000000e+09    -0.0262865  -19.0242   -27.5467  162.959   -143.337  -14.0658   -0.00683282  174.273  
1.65000000e+09    -0.0262625  -19.1381   -27.4413  162.847   -143.126  -14.1642   -0.00691666  174.238  
1.66000000e+09    -0.0262383  -19.2519   -27.3365  162.735   -142.916  -14.2625   -0.00700103  174.203  
1.67000000e+09    -0.0262139  -19.3657   -27.2324  162.624   -142.707  -14.3607   -0.00708591  174.168  
1.68000000e+09    -0.0261894  -19.4795   -27.1289  162.512    -142.5  -14.4588   -0.00717131  174.132  
1.69000000e+09    -0.0261648  -19.5932   -27.026  162.401   -142.294  -14.5568   -0.00725722  174.097  
1.70000000e+09    -0.02614  -19.7069   -26.9237  162.289   -142.089  -14.6548   -0.00734365  174.062  
1.71000000e+09    -0.026115  -19.8205   -26.822  162.178   -141.886  -14.7526   -0.00743059  174.027  
1.72000000e+09    -0.0260899  -19.9341   -26.7209  162.067   -141.683  -14.8504   -0.00751806  173.992  
1.73000000e+09    -0.0260646  -20.0477   -26.6204  161.955   -141.482  -14.948   -0.00760604  173.957  
1.74000000e+09    -0.0260392  -20.1612   -26.5205  161.844   -141.282  -15.0456   -0.00769453  173.922  
1.75000000e+09    -0.0260136  -20.2747   -26.4212  161.733   -141.083  -15.1431   -0.00778355  173.887  
1.76000000e+09    -0.0259878  -20.3882   -26.3224  161.622   -140.885  -15.2405   -0.00787308  173.852  
1.77000000e+09    -0.0259619  -20.5016   -26.2242  161.511   -140.688  -15.3378   -0.00796313  173.817  
1.78000000e+09    -0.0259358  -20.615   -26.1265    161.4   -140.493  -15.4351   -0.00805369  173.782  
1.79000000e+09    -0.0259096  -20.7283   -26.0294  161.289   -140.298  -15.5322   -0.00814478  173.746  
1.80000000e+09    -0.0258832  -20.8416   -25.9328  161.178   -140.105  -15.6293   -0.00823638  173.711  
1.81000000e+09    -0.0258566  -20.9548   -25.8368  161.068   -139.913  -15.7263   -0.0083285  173.676  
1.82000000e+09    -0.0258299  -21.068   -25.7413  160.957   -139.722  -15.8232   -0.00842113  173.641  
1.83000000e+09    -0.025803  -21.1812   -25.6463  160.846   -139.531  -15.9201   -0.00851429  173.606  
1.84000000e+09    -0.025776  -21.2943   -25.5519  160.736   -139.342  -16.0169   -0.00860796  173.571  
1.85000000e+09    -0.0257488  -21.4074   -25.4579  160.625   -139.154  -16.1136   -0.00870215  173.536  
1.86000000e+09    -0.0257215  -21.5205   -25.3645  160.515   -138.967  -16.2102   -0.00879686  173.501  
1.87000000e+09    -0.025694  -21.6335   -25.2716  160.404   -138.781  -16.3067   -0.00889209  173.465  
1.88000000e+09    -0.0256663  -21.7464   -25.1791  160.294   -138.596  -16.4032   -0.00898784   173.43  
1.89000000e+09    -0.0256384  -21.8593   -25.0872  160.184   -138.412  -16.4996   -0.00908411  173.395  
