! Touchstone Ver. 1.0 
! Fri May  5 20:04:56 2023
! Number of ports is 2
# Hz	S	DB	R	50.000000
! SCATTERING PARAMETERS  :
1.00000000e+07    -1.23106e-11  179.989   -394.413  -176.844   -603.589   30.287   -1.58451e-07  179.965  
2.00000000e+07    -8.21279e-11  179.978   -359.977  144.998   -554.454  -11.1097   -8.18144e-07   179.93  
3.00000000e+07    -2.10151e-10  179.966   -341.302  127.967   -527.716  -33.3972   -2.03829e-06  179.895  
4.00000000e+07    -3.92172e-10  179.955   -328.412  118.758   -509.382  -46.3529   -3.78953e-06  179.861  
5.00000000e+07    -6.27081e-10  179.944   -318.533  113.048    -495.4  -54.652   -6.05757e-06  179.826  
6.00000000e+07    -9.14543e-10  179.933   -310.512  109.168   -484.082  -60.3812   -8.8369e-06  179.791  
7.00000000e+07    -1.25443e-09  179.921   -303.754  106.359   -474.567  -64.5626   -1.21252e-05  179.756  
8.00000000e+07    -1.64669e-09   179.91   -297.915  104.228   -466.355  -67.746   -1.59215e-05  179.721  
9.00000000e+07    -2.09129e-09  179.899   -292.771  102.553   -459.128  -70.2505   -2.02251e-05  179.686  
1.00000000e+08    -2.58821e-09  179.888   -288.175  101.199   -452.676  -72.2733   -2.50358e-05  179.652  
1.10000000e+08    -3.13744e-09  179.876   -284.021  100.079   -446.846  -73.9422   -3.03534e-05  179.617  
1.20000000e+08    -3.73896e-09  179.865   -280.231  99.1353   -441.529  -75.3439   -3.61779e-05  179.582  
1.30000000e+08    -4.39277e-09  179.854   -276.746  98.3276   -436.642  -76.5389   -4.25091e-05  179.547  
1.40000000e+08    -5.09885e-09  179.843   -273.52  97.6267   -432.12  -77.5707   -4.93471e-05  179.512  
1.50000000e+08    -5.85719e-09  179.832   -270.518  97.0116   -427.911  -78.4716   -5.66918e-05  179.477  
1.60000000e+08    -6.66779e-09   179.82   -267.71  96.4661   -423.976  -79.2658   -6.45433e-05  179.442  
1.70000000e+08    -7.53064e-09  179.809   -265.073   95.978   -420.281  -79.9719   -7.29014e-05  179.408  
1.80000000e+08    -8.44571e-09  179.798   -262.588  95.5378   -416.798  -80.6046   -8.17663e-05  179.373  
1.90000000e+08    -9.41301e-09  179.787   -260.237   95.138   -413.504  -81.1753   -9.1138e-05  179.338  
2.00000000e+08    -1.04325e-08  179.775   -258.006  94.7725   -410.38  -81.6932   -0.000101016  179.303  
2.10000000e+08    -1.15042e-08  179.764   -255.885  94.4364   -407.408  -82.1658   -0.000111402  179.268  
2.20000000e+08    -1.26281e-08  179.753   -253.863  94.1257   -404.575  -82.5993   -0.000122294  179.233  
2.30000000e+08    -1.38042e-08  179.742   -251.931  93.8372   -401.869  -82.9987   -0.000133692  179.198  
2.40000000e+08    -1.50324e-08  179.731   -250.081   93.568   -399.278  -83.3683   -0.000145598  179.164  
2.50000000e+08    -1.63128e-08  179.719   -248.306  93.3159   -396.793  -83.7116   -0.000158011  179.129  
2.60000000e+08    -1.76452e-08  179.708   -246.602  93.0788   -394.405  -84.0317   -0.00017093  179.094  
2.70000000e+08    -1.90298e-08  179.697   -244.961  92.8551   -392.108  -84.3311   -0.000184356  179.059  
2.80000000e+08    -2.04665e-08  179.686   -243.381  92.6434   -389.895  -84.6121   -0.00019829  179.024  
2.90000000e+08    -2.19553e-08  179.674   -241.856  92.4425   -387.759  -84.8764   -0.00021273  178.989  
3.00000000e+08    -2.34961e-08  179.663   -240.382  92.2512   -385.696  -85.1259   -0.000227677  178.954  
3.10000000e+08    -2.50889e-08  179.652   -238.957  92.0686    -383.7  -85.3619   -0.000243132   178.92  
3.20000000e+08    -2.67338e-08  179.641   -237.577  91.8939   -381.768  -85.5857   -0.000259093  178.885  
3.30000000e+08    -2.84307e-08  179.629   -236.24  91.7264   -379.896  -85.7984   -0.000275562   178.85  
3.40000000e+08    -3.01795e-08  179.618   -234.943  91.5655   -378.079  -86.0009   -0.000292538  178.815  
3.50000000e+08    -3.19803e-08  179.607   -233.683  91.4106   -376.315  -86.1942   -0.000310021   178.78  
3.60000000e+08    -3.3833e-08  179.596   -232.459  91.2612   -374.601  -86.379   -0.000328011  178.745  
3.70000000e+08    -3.57377e-08  179.584   -231.268  91.1168   -372.934  -86.556   -0.000346509   178.71  
3.80000000e+08    -3.76942e-08  179.573   -230.109  90.9771   -371.311  -86.7258   -0.000365514  178.676  
3.90000000e+08    -3.97026e-08  179.562   -228.98  90.8416   -369.73  -86.889   -0.000385026  178.641  
4.00000000e+08    -4.17628e-08  179.551   -227.88  90.7102   -368.19  -87.046   -0.000405046  178.606  
4.10000000e+08    -4.38748e-08   179.54   -226.806  90.5824   -366.687  -87.1974   -0.000425574  178.571  
4.20000000e+08    -4.60387e-08  179.528   -225.759   90.458   -365.221  -87.3434   -0.000446608  178.536  
4.30000000e+08    -4.82543e-08  179.517   -224.736  90.3369   -363.789  -87.4845   -0.000468151  178.501  
4.40000000e+08    -5.05216e-08  179.506   -223.737  90.2186   -362.39  -87.6211   -0.000490201  178.466  
4.50000000e+08    -5.28406e-08  179.495   -222.76  90.1032   -361.023  -87.7534   -0.000512759  178.432  
4.60000000e+08    -5.52113e-08  179.483   -221.805  89.9903   -359.686  -87.8816   -0.000535824  178.397  
4.70000000e+08    -5.76337e-08  179.472   -220.87  89.8799   -358.377  -88.0062   -0.000559398  178.362  
4.80000000e+08    -6.01076e-08  179.461   -219.955  89.7717   -357.096  -88.1272   -0.000583479  178.327  
4.90000000e+08    -6.26332e-08   179.45   -219.059  89.6657   -355.841  -88.2449   -0.000608068  178.292  
5.00000000e+08    -6.52103e-08  179.438   -218.181  89.5617   -354.612  -88.3595   -0.000633165  178.257  
5.10000000e+08    -6.78389e-08  179.427   -217.32  89.4595   -353.407  -88.4712   -0.00065877  178.222  
5.20000000e+08    -7.0519e-08  179.416   -216.476  89.3591   -352.225  -88.5802   -0.000684883  178.187  
5.30000000e+08    -7.32506e-08  179.405   -215.648  89.2604   -351.066  -88.6866   -0.000711504  178.153  
5.40000000e+08    -7.60336e-08  179.393   -214.835  89.1633   -349.929  -88.7905   -0.000738634  178.118  
5.50000000e+08    -7.8868e-08  179.382   -214.038  89.0677   -348.812  -88.8921   -0.000766272  178.083  
5.60000000e+08    -8.17538e-08  179.371   -213.254  88.9735   -347.716  -88.9915   -0.000794418  178.048  
5.70000000e+08    -8.46908e-08   179.36   -212.485  88.8806   -346.638  -89.0888   -0.000823073  178.013  
5.80000000e+08    -8.76792e-08  179.348   -211.729   88.789   -345.58  -89.1842   -0.000852236  177.978  
5.90000000e+08    -9.07188e-08  179.337   -210.985  88.6986   -344.54  -89.2777   -0.000881907  177.943  
6.00000000e+08    -9.38096e-08  179.326   -210.255  88.6094   -343.517  -89.3694   -0.000912088  177.908  
6.10000000e+08    -9.69515e-08  179.315   -209.536  88.5213   -342.511  -89.4595   -0.000942777  177.874  
6.20000000e+08    -1.00145e-07  179.304   -208.829  88.4342   -341.521  -89.5479   -0.000973974  177.839  
6.30000000e+08    -1.03389e-07  179.292   -208.133   88.348   -340.547  -89.6348   -0.00100568  177.804  
6.40000000e+08    -1.06684e-07  179.281   -207.448  88.2629   -339.589  -89.7203   -0.0010379  177.769  
6.50000000e+08    -1.1003e-07   179.27   -206.774  88.1786   -338.645  -89.8043   -0.00107062  177.734  
6.60000000e+08    -1.13427e-07  179.259   -206.11  88.0952   -337.716  -89.8871   -0.00110385  177.699  
6.70000000e+08    -1.16875e-07  179.247   -205.456  88.0125   -336.801  -89.9685   -0.0011376  177.664  
6.80000000e+08    -1.20374e-07  179.236   -204.812  87.9307   -335.899  -90.0488   -0.00117185  177.629  
6.90000000e+08    -1.23924e-07  179.225   -204.177  87.8497   -335.01  -90.1279   -0.00120661  177.595  
7.00000000e+08    -1.27525e-07  179.214   -203.551  87.7693   -334.134  -90.2058   -0.00124188   177.56  
7.10000000e+08    -1.31176e-07  179.202   -202.934  87.6896   -333.271  -90.2828   -0.00127766  177.525  
7.20000000e+08    -1.34878e-07  179.191   -202.325  87.6106   -332.419  -90.3587   -0.00131395   177.49  
7.30000000e+08    -1.38631e-07   179.18   -201.725  87.5322   -331.58  -90.4336   -0.00135075  177.455  
7.40000000e+08    -1.42434e-07  179.169   -201.133  87.4545   -330.751  -90.5076   -0.00138806   177.42  
7.50000000e+08    -1.46288e-07  179.157   -200.55  87.3773   -329.934  -90.5807   -0.00142588  177.385  
7.60000000e+08    -1.50192e-07  179.146   -199.973  87.3006   -329.128  -90.6529   -0.00146421   177.35  
7.70000000e+08    -1.54147e-07  179.135   -199.405  87.2245   -328.332  -90.7243   -0.00150305  177.315  
7.80000000e+08    -1.58152e-07  179.124   -198.843  87.1489   -327.546  -90.7949   -0.0015424   177.28  
7.90000000e+08    -1.62208e-07  179.112   -198.289  87.0738   -326.771  -90.8647   -0.00158226  177.246  
8.00000000e+08    -1.66314e-07  179.101   -197.741  86.9992   -326.005  -90.9338   -0.00162262  177.211  
8.10000000e+08    -1.7047e-07   179.09   -197.201  86.9251   -325.248  -91.0022   -0.0016635  177.176  
8.20000000e+08    -1.74676e-07  179.079   -196.667  86.8513   -324.501  -91.0699   -0.0017049  177.141  
8.30000000e+08    -1.78932e-07  179.067   -196.139  86.7781   -323.763  -91.1369   -0.0017468  177.106  
8.40000000e+08    -1.83239e-07  179.056   -195.618  86.7052   -323.034  -91.2033   -0.00178921  177.071  
8.50000000e+08    -1.87595e-07  179.045   -195.103  86.6327   -322.313  -91.2691   -0.00183213  177.036  
8.60000000e+08    -1.92002e-07  179.034   -194.594  86.5606    -321.6  -91.3343   -0.00187556  177.001  
8.70000000e+08    -1.96458e-07  179.022   -194.091  86.4889   -320.896  -91.3989   -0.00191951  176.966  
8.80000000e+08    -2.00964e-07  179.011   -193.593  86.4175    -320.2  -91.463   -0.00196396  176.931  
8.90000000e+08    -2.0552e-07      179   -193.101  86.3465   -319.512  -91.5265   -0.00200893  176.897  
9.00000000e+08    -2.10126e-07  178.988   -192.615  86.2758   -318.831  -91.5896   -0.00205441  176.862  
9.10000000e+08    -2.14782e-07  178.977   -192.134  86.2054   -318.158  -91.6521   -0.0021004  176.827  
9.20000000e+08    -2.19487e-07  178.966   -191.658  86.1353   -317.493  -91.7141   -0.0021469  176.792  
9.30000000e+08    -2.24241e-07  178.955   -191.187  86.0656   -316.834  -91.7757   -0.00219391  176.757  
9.40000000e+08    -2.29045e-07  178.943   -190.721  85.9961   -316.182  -91.8368   -0.00224144  176.722  
9.50000000e+08    -2.33899e-07  178.932   -190.261  85.9269   -315.538  -91.8975   -0.00228947  176.687  
9.60000000e+08    -2.38802e-07  178.921   -189.805   85.858    -314.9  -91.9577   -0.00233802  176.652  
9.70000000e+08    -2.43754e-07   178.91   -189.353  85.7894   -314.268  -92.0176   -0.00238708  176.617  
9.80000000e+08    -2.48755e-07  178.898   -188.907   85.721   -313.643  -92.077   -0.00243665  176.582  
9.90000000e+08    -2.53806e-07  178.887   -188.464  85.6528   -313.025  -92.1361   -0.00248674  176.547  
1.00000000e+09    -2.58905e-07  178.876   -188.027  85.5849   -312.412  -92.1948   -0.00253734  176.512  
1.01000000e+09    -2.64054e-07  178.865   -187.593  85.5173   -311.806  -92.2531   -0.00258845  176.477  
1.02000000e+09    -2.69252e-07  178.853   -187.164  85.4498   -311.206  -92.3111   -0.00264007  176.443  
1.03000000e+09    -2.74498e-07  178.842   -186.739  85.3826   -310.611  -92.3687   -0.0026922  176.408  
1.04000000e+09    -2.79794e-07  178.831   -186.318  85.3156   -310.022  -92.426   -0.00274485  176.373  
1.05000000e+09    -2.85138e-07   178.82   -185.901  85.2488   -309.439  -92.483   -0.00279801  176.338  
1.06000000e+09    -2.9053e-07  178.808   -185.488  85.1822   -308.861  -92.5396   -0.00285169  176.303  
1.07000000e+09    -2.95972e-07  178.797   -185.079  85.1158   -308.289  -92.596   -0.00290588  176.268  
1.08000000e+09    -3.01462e-07  178.786   -184.673  85.0496   -307.722  -92.652   -0.00296058  176.233  
1.09000000e+09    -3.07e-07  178.774   -184.272  84.9836   -307.16  -92.7078   -0.00301579  176.198  
1.10000000e+09    -3.12587e-07  178.763   -183.874  84.9177   -306.603  -92.7633   -0.00307152  176.163  
1.11000000e+09    -3.18222e-07  178.752   -183.479   84.852   -306.052  -92.8185   -0.00312777  176.128  
1.12000000e+09    -3.23905e-07  178.741   -183.088  84.7865   -305.505  -92.8735   -0.00318452  176.093  
1.13000000e+09    -3.29636e-07  178.729   -182.701  84.7212   -304.963  -92.9282   -0.00324179  176.058  
1.14000000e+09    -3.35416e-07  178.718   -182.316   84.656   -304.426  -92.9826   -0.00329958  176.023  
1.15000000e+09    -3.41243e-07  178.707   -181.936   84.591   -303.893  -93.0368   -0.00335788  175.988  
1.16000000e+09    -3.47119e-07  178.695   -181.558  84.5262   -303.365  -93.0908   -0.00341669  175.953  
1.17000000e+09    -3.53042e-07  178.684   -181.184  84.4615   -302.842  -93.1445   -0.00347602  175.918  
1.18000000e+09    -3.59013e-07  178.673   -180.813  84.3969   -302.323  -93.198   -0.00353586  175.883  
1.19000000e+09    -3.65031e-07  178.662   -180.445  84.3325   -301.808  -93.2513   -0.00359622  175.848  
1.20000000e+09    -3.71097e-07   178.65   -180.08  84.2682   -301.298  -93.3044   -0.0036571  175.813  
1.21000000e+09    -3.77211e-07  178.639   -179.718   84.204   -300.791  -93.3572   -0.00371848  175.778  
1.22000000e+09    -3.83372e-07  178.628   -179.359    84.14   -300.289  -93.4099   -0.00378039  175.743  
1.23000000e+09    -3.89581e-07  178.616   -179.003  84.0761   -299.791  -93.4623   -0.00384281  175.709  
1.24000000e+09    -3.95836e-07  178.605   -178.649  84.0124   -299.297  -93.5146   -0.00390574  175.674  
1.25000000e+09    -4.02139e-07  178.594   -178.299  83.9487   -298.807  -93.5667   -0.0039692  175.639  
1.26000000e+09    -4.08489e-07  178.583   -177.951  83.8852   -298.321  -93.6186   -0.00403316  175.604  
1.27000000e+09    -4.14886e-07  178.571   -177.606  83.8218   -297.839  -93.6703   -0.00409765  175.569  
1.28000000e+09    -4.21329e-07   178.56   -177.264  83.7585   -297.36  -93.7218   -0.00416265  175.534  
1.29000000e+09    -4.2782e-07  178.549   -176.924  83.6953   -296.885  -93.7732   -0.00422816  175.499  
1.30000000e+09    -4.34357e-07  178.537   -176.587  83.6322   -296.414  -93.8244   -0.0042942  175.464  
1.31000000e+09    -4.40941e-07  178.526   -176.253  83.5692   -295.947  -93.8754   -0.00436074  175.429  
1.32000000e+09    -4.47571e-07  178.515   -175.921  83.5063   -295.482  -93.9263   -0.00442781  175.394  
1.33000000e+09    -4.54248e-07  178.504   -175.591  83.4436   -295.022  -93.977   -0.0044954  175.359  
1.34000000e+09    -4.60971e-07  178.492   -175.264  83.3809   -294.565  -94.0275   -0.0045635  175.324  
1.35000000e+09    -4.6774e-07  178.481   -174.939  83.3183   -294.111  -94.0779   -0.00463211  175.289  
1.36000000e+09    -4.74555e-07   178.47   -174.617  83.2558   -293.66  -94.1282   -0.00470125  175.254  
1.37000000e+09    -4.81417e-07  178.458   -174.297  83.1934   -293.213  -94.1783   -0.0047709  175.219  
1.38000000e+09    -4.88324e-07  178.447   -173.98  83.1311   -292.769  -94.2283   -0.00484108  175.184  
1.39000000e+09    -4.95277e-07  178.436   -173.664  83.0689   -292.328  -94.2782   -0.00491176  175.149  
1.40000000e+09    -5.02276e-07  178.424   -173.351  83.0068   -291.89  -94.3279   -0.00498297  175.114  
1.41000000e+09    -5.0932e-07  178.413   -173.04  82.9447   -291.456  -94.3775   -0.0050547  175.079  
1.42000000e+09    -5.1641e-07  178.402   -172.731  82.8828   -291.024  -94.4269   -0.00512694  175.044  
1.43000000e+09    -5.23546e-07  178.391   -172.425  82.8209   -290.596  -94.4762   -0.00519971  175.009  
1.44000000e+09    -5.30726e-07  178.379   -172.12  82.7591   -290.17  -94.5254   -0.00527299  174.974  
1.45000000e+09    -5.37952e-07  178.368   -171.818  82.6973   -289.747  -94.5745   -0.00534679  174.939  
1.46000000e+09    -5.45223e-07  178.357   -171.517  82.6357   -289.328  -94.6235   -0.00542111  174.904  
1.47000000e+09    -5.52539e-07  178.345   -171.219  82.5741   -288.911  -94.6724   -0.00549595  174.869  
1.48000000e+09    -5.599e-07  178.334   -170.923  82.5126   -288.496  -94.7211   -0.00557131  174.834  
1.49000000e+09    -5.67305e-07  178.323   -170.628  82.4511   -288.085  -94.7697   -0.00564719  174.799  
1.50000000e+09    -5.74755e-07  178.311   -170.336  82.3898   -287.676  -94.8183   -0.00572359  174.763  
1.51000000e+09    -5.8225e-07    178.3   -170.045  82.3285   -287.27  -94.8667   -0.00580051  174.728  
1.52000000e+09    -5.89789e-07  178.289   -169.757  82.2672   -286.867  -94.915   -0.00587795  174.693  
1.53000000e+09    -5.97373e-07  178.277   -169.47  82.2061   -286.466  -94.9632   -0.00595591  174.658  
1.54000000e+09    -6.05001e-07  178.266   -169.185  82.1449   -286.068  -95.0113   -0.00603439  174.623  
1.55000000e+09    -6.12672e-07  178.255   -168.902  82.0839   -285.673  -95.0593   -0.0061134  174.588  
1.56000000e+09    -6.20388e-07  178.243   -168.621  82.0229   -285.28  -95.1073   -0.00619292  174.553  
1.57000000e+09    -6.28148e-07  178.232   -168.341   81.962   -284.889  -95.1551   -0.00627296  174.518  
1.58000000e+09    -6.35951e-07  178.221   -168.063  81.9011   -284.501  -95.2028   -0.00635353  174.483  
1.59000000e+09    -6.43798e-07  178.209   -167.787  81.8403   -284.115  -95.2505   -0.00643462  174.448  
1.60000000e+09    -6.51688e-07  178.198   -167.513  81.7795   -283.732  -95.298   -0.00651623  174.413  
1.61000000e+09    -6.59622e-07  178.187   -167.24  81.7188   -283.351  -95.3455   -0.00659836  174.378  
1.62000000e+09    -6.67599e-07  178.175   -166.969  81.6582   -282.972  -95.3929   -0.00668101  174.343  
1.63000000e+09    -6.75619e-07  178.164    -166.7  81.5976   -282.596  -95.4402   -0.00676419  174.308  
1.64000000e+09    -6.83682e-07  178.153   -166.432   81.537   -282.222  -95.4874   -0.00684789  174.273  
1.65000000e+09    -6.91788e-07  178.141   -166.166  81.4765   -281.85  -95.5346   -0.00693211  174.238  
1.66000000e+09    -6.99937e-07   178.13   -165.901  81.4161   -281.481  -95.5816   -0.00701686  174.203  
1.67000000e+09    -7.08128e-07  178.119   -165.638  81.3557   -281.113  -95.6286   -0.00710213  174.168  
1.68000000e+09    -7.16362e-07  178.107   -165.377  81.2954   -280.748  -95.6755   -0.00718792  174.133  
1.69000000e+09    -7.24638e-07  178.096   -165.117  81.2351   -280.385  -95.7224   -0.00727423  174.097  
1.70000000e+09    -7.32956e-07  178.085   -164.858  81.1748   -280.024  -95.7691   -0.00736107  174.062  
1.71000000e+09    -7.41316e-07  178.073   -164.601  81.1146   -279.665  -95.8158   -0.00744844  174.027  
1.72000000e+09    -7.49719e-07  178.062   -164.346  81.0544   -279.308  -95.8625   -0.00753632  173.992  
1.73000000e+09    -7.58163e-07  178.051   -164.092  80.9943   -278.954  -95.909   -0.00762474  173.957  
1.74000000e+09    -7.66648e-07  178.039   -163.839  80.9342   -278.601  -95.9555   -0.00771367  173.922  
1.75000000e+09    -7.75176e-07  178.028   -163.588  80.8742   -278.25  -96.0019   -0.00780313  173.887  
1.76000000e+09    -7.83744e-07  178.017   -163.339  80.8142   -277.901  -96.0483   -0.00789312  173.852  
1.77000000e+09    -7.92354e-07  178.005   -163.09  80.7542   -277.554  -96.0946   -0.00798363  173.817  
1.78000000e+09    -8.01006e-07  177.994   -162.843  80.6943   -277.21  -96.1408   -0.00807467  173.782  
1.79000000e+09    -8.09698e-07  177.983   -162.598  80.6344   -276.867  -96.187   -0.00816623  173.746  
1.80000000e+09    -8.1843e-07  177.971   -162.353  80.5746   -276.526  -96.2331   -0.00825832  173.711  
1.81000000e+09    -8.27204e-07   177.96   -162.11  80.5148   -276.186  -96.2791   -0.00835094  173.676  
1.82000000e+09    -8.36018e-07  177.949   -161.869   80.455   -275.849  -96.3251   -0.00844408  173.641  
1.83000000e+09    -8.44873e-07  177.937   -161.628  80.3953   -275.513  -96.3711   -0.00853775  173.606  
1.84000000e+09    -8.53767e-07  177.926   -161.389  80.3356   -275.18  -96.4169   -0.00863195  173.571  
1.85000000e+09    -8.62702e-07  177.914   -161.151   80.276   -274.848  -96.4628   -0.00872667  173.536  
1.86000000e+09    -8.71677e-07  177.903   -160.915  80.2163   -274.517  -96.5085   -0.00882192  173.501  
1.87000000e+09    -8.80691e-07  177.892   -160.68  80.1567   -274.189  -96.5542   -0.0089177  173.466  
